 ****** HSPICE -- O-2018.09-SP2 win64 (Feb 25 2019) ******                      
  Copyright (c) 1986 - 2021 by Synopsys, Inc. All Rights Reserved.              
  This software and the associated documentation are proprietary
  to Synopsys, Inc. This software may only be used in accordance
  with the terms and conditions of a written license agreement with
  Synopsys, Inc. All other use, reproduction, or distribution of
  this software is strictly prohibited.
  Input File: nmos@50u_difLW.sp                                                 
  Command line options: C:\synopsys\Hspice_O-2018.09-SP2\WIN64\hspice.com -i nmos@50u_difLW.sp -o C:\sdsy\case1\nmos@50u_difLW.lis
  Start time: Fri Oct 29 10:40:42 2021
  lic:  
  lic: FLEXlm: SDK_11.7.3 
  lic: USER:   admin                HOSTNAME: DESKTOP-3KO7170 
  lic: HOSTID: "d83bbfb49802"       PID:      45372 
  lic: Using FLEXlm license file: 
  lic: 27000@DESKTOP-3KO7170 
  lic: Checkout 1 hspice 
  lic: License/Maintenance for hspice will expire on 30-dec-2029/2019.2019 
  lic: 1(in_use)/99(total) FLOATING license(s) on SERVER 27000@DESKTOP-3KO7170 
  lic:   
  
      

Element variations(Local):   element              parameter
 *****************************************************************
 ******  option summary
 ******
 runlvl  = 3         bypass  = 2.0000    
 ******
 

 ****** dc transfer curves tnom=  25.000 temp=  25.000 ******
x

 volt         current    voltage   
             m1         vin        
    0.          0.         0.      
    1.00000m  612.0283n    1.0000m 
    2.00000m    1.2208u    2.0000m 
    3.00000m    1.8264u    3.0000m 
    4.00000m    2.4288u    4.0000m 
    5.00000m    3.0280u    5.0000m 
    6.00000m    3.6241u    6.0000m 
    7.00000m    4.2170u    7.0000m 
    8.00000m    4.8068u    8.0000m 
    9.00000m    5.3936u    9.0000m 
   10.00000m    5.9772u   10.0000m 
   11.00000m    6.5579u   11.0000m 
   12.00000m    7.1355u   12.0000m 
   13.00000m    7.7100u   13.0000m 
   14.00000m    8.2816u   14.0000m 
   15.00000m    8.8503u   15.0000m 
   16.00000m    9.4159u   16.0000m 
   17.00000m    9.9787u   17.0000m 
   18.00000m   10.5385u   18.0000m 
   19.00000m   11.0954u   19.0000m 
   20.00000m   11.6495u   20.0000m 
   21.00000m   12.2007u   21.0000m 
   22.00000m   12.7491u   22.0000m 
   23.00000m   13.2946u   23.0000m 
   24.00000m   13.8374u   24.0000m 
   25.00000m   14.3773u   25.0000m 
   26.00000m   14.9145u   26.0000m 
   27.00000m   15.4489u   27.0000m 
   28.00000m   15.9806u   28.0000m 
   29.00000m   16.5096u   29.0000m 
   30.00000m   17.0359u   30.0000m 
   31.00000m   17.5595u   31.0000m 
   32.00000m   18.0805u   32.0000m 
   33.00000m   18.5988u   33.0000m 
   34.00000m   19.1144u   34.0000m 
   35.00000m   19.6275u   35.0000m 
   36.00000m   20.1379u   36.0000m 
   37.00000m   20.6458u   37.0000m 
   38.00000m   21.1511u   38.0000m 
   39.00000m   21.6539u   39.0000m 
   40.00000m   22.1541u   40.0000m 
   41.00000m   22.6518u   41.0000m 
   42.00000m   23.1469u   42.0000m 
   43.00000m   23.6396u   43.0000m 
   44.00000m   24.1299u   44.0000m 
   45.00000m   24.6176u   45.0000m 
   46.00000m   25.1029u   46.0000m 
   47.00000m   25.5858u   47.0000m 
   48.00000m   26.0663u   48.0000m 
   49.00000m   26.5444u   49.0000m 
   50.00000m   27.0201u   50.0000m 
   51.00000m   27.4934u   51.0000m 
   52.00000m   27.9644u   52.0000m 
   53.00000m   28.4330u   53.0000m 
   54.00000m   28.8993u   54.0000m 
   55.00000m   29.3632u   55.0000m 
   56.00000m   29.8249u   56.0000m 
   57.00000m   30.2843u   57.0000m 
   58.00000m   30.7414u   58.0000m 
   59.00000m   31.1962u   59.0000m 
   60.00000m   31.6488u   60.0000m 
   61.00000m   32.0992u   61.0000m 
   62.00000m   32.5473u   62.0000m 
   63.00000m   32.9933u   63.0000m 
   64.00000m   33.4370u   64.0000m 
   65.00000m   33.8786u   65.0000m 
   66.00000m   34.3180u   66.0000m 
   67.00000m   34.7552u   67.0000m 
   68.00000m   35.1903u   68.0000m 
   69.00000m   35.6232u   69.0000m 
   70.00000m   36.0541u   70.0000m 
   71.00000m   36.4828u   71.0000m 
   72.00000m   36.9094u   72.0000m 
   73.00000m   37.3340u   73.0000m 
   74.00000m   37.7565u   74.0000m 
   75.00000m   38.1769u   75.0000m 
   76.00000m   38.5952u   76.0000m 
   77.00000m   39.0116u   77.0000m 
   78.00000m   39.4259u   78.0000m 
   79.00000m   39.8382u   79.0000m 
   80.00000m   40.2485u   80.0000m 
   81.00000m   40.6568u   81.0000m 
   82.00000m   41.0631u   82.0000m 
   83.00000m   41.4675u   83.0000m 
   84.00000m   41.8699u   84.0000m 
   85.00000m   42.2703u   85.0000m 
   86.00000m   42.6689u   86.0000m 
   87.00000m   43.0655u   87.0000m 
   88.00000m   43.4602u   88.0000m 
   89.00000m   43.8529u   89.0000m 
   90.00000m   44.2438u   90.0000m 
   91.00000m   44.6328u   91.0000m 
   92.00000m   45.0200u   92.0000m 
   93.00000m   45.4053u   93.0000m 
   94.00000m   45.7887u   94.0000m 
   95.00000m   46.1703u   95.0000m 
   96.00000m   46.5500u   96.0000m 
   97.00000m   46.9280u   97.0000m 
   98.00000m   47.3041u   98.0000m 
   99.00000m   47.6784u   99.0000m 
  100.00000m   48.0510u  100.0000m 
  101.00000m   48.4217u  101.0000m 
  102.00000m   48.7907u  102.0000m 
  103.00000m   49.1580u  103.0000m 
  104.00000m   49.5234u  104.0000m 
  105.00000m   49.8872u  105.0000m 
  106.00000m   50.2492u  106.0000m 
  107.00000m   50.6095u  107.0000m 
  108.00000m   50.9680u  108.0000m 
  109.00000m   51.3249u  109.0000m 
  110.00000m   51.6801u  110.0000m 
  111.00000m   52.0336u  111.0000m 
  112.00000m   52.3854u  112.0000m 
  113.00000m   52.7355u  113.0000m 
  114.00000m   53.0840u  114.0000m 
  115.00000m   53.4308u  115.0000m 
  116.00000m   53.7760u  116.0000m 
  117.00000m   54.1195u  117.0000m 
  118.00000m   54.4615u  118.0000m 
  119.00000m   54.8018u  119.0000m 
  120.00000m   55.1405u  120.0000m 
  121.00000m   55.4776u  121.0000m 
  122.00000m   55.8131u  122.0000m 
  123.00000m   56.1470u  123.0000m 
  124.00000m   56.4794u  124.0000m 
  125.00000m   56.8102u  125.0000m 
  126.00000m   57.1394u  126.0000m 
  127.00000m   57.4671u  127.0000m 
  128.00000m   57.7933u  128.0000m 
  129.00000m   58.1179u  129.0000m 
  130.00000m   58.4410u  130.0000m 
  131.00000m   58.7626u  131.0000m 
  132.00000m   59.0826u  132.0000m 
  133.00000m   59.4012u  133.0000m 
  134.00000m   59.7183u  134.0000m 
  135.00000m   60.0338u  135.0000m 
  136.00000m   60.3479u  136.0000m 
  137.00000m   60.6606u  137.0000m 
  138.00000m   60.9717u  138.0000m 
  139.00000m   61.2815u  139.0000m 
  140.00000m   61.5897u  140.0000m 
  141.00000m   61.8965u  141.0000m 
  142.00000m   62.2019u  142.0000m 
  143.00000m   62.5059u  143.0000m 
  144.00000m   62.8084u  144.0000m 
  145.00000m   63.1096u  145.0000m 
  146.00000m   63.4093u  146.0000m 
  147.00000m   63.7076u  147.0000m 
  148.00000m   64.0046u  148.0000m 
  149.00000m   64.3001u  149.0000m 
  150.00000m   64.5943u  150.0000m 
  151.00000m   64.8871u  151.0000m 
  152.00000m   65.1785u  152.0000m 
  153.00000m   65.4686u  153.0000m 
  154.00000m   65.7574u  154.0000m 
  155.00000m   66.0448u  155.0000m 
  156.00000m   66.3308u  156.0000m 
  157.00000m   66.6156u  157.0000m 
  158.00000m   66.8990u  158.0000m 
  159.00000m   67.1810u  159.0000m 
  160.00000m   67.4618u  160.0000m 
  161.00000m   67.7413u  161.0000m 
  162.00000m   68.0195u  162.0000m 
  163.00000m   68.2964u  163.0000m 
  164.00000m   68.5720u  164.0000m 
  165.00000m   68.8463u  165.0000m 
  166.00000m   69.1193u  166.0000m 
  167.00000m   69.3911u  167.0000m 
  168.00000m   69.6617u  168.0000m 
  169.00000m   69.9309u  169.0000m 
  170.00000m   70.1990u  170.0000m 
  171.00000m   70.4657u  171.0000m 
  172.00000m   70.7313u  172.0000m 
  173.00000m   70.9956u  173.0000m 
  174.00000m   71.2587u  174.0000m 
  175.00000m   71.5206u  175.0000m 
  176.00000m   71.7813u  176.0000m 
  177.00000m   72.0407u  177.0000m 
  178.00000m   72.2990u  178.0000m 
  179.00000m   72.5560u  179.0000m 
  180.00000m   72.8119u  180.0000m 
  181.00000m   73.0666u  181.0000m 
  182.00000m   73.3201u  182.0000m 
  183.00000m   73.5725u  183.0000m 
  184.00000m   73.8237u  184.0000m 
  185.00000m   74.0737u  185.0000m 
  186.00000m   74.3225u  186.0000m 
  187.00000m   74.5703u  187.0000m 
  188.00000m   74.8168u  188.0000m 
  189.00000m   75.0623u  189.0000m 
  190.00000m   75.3066u  190.0000m 
  191.00000m   75.5497u  191.0000m 
  192.00000m   75.7918u  192.0000m 
  193.00000m   76.0327u  193.0000m 
  194.00000m   76.2725u  194.0000m 
  195.00000m   76.5112u  195.0000m 
  196.00000m   76.7488u  196.0000m 
  197.00000m   76.9853u  197.0000m 
  198.00000m   77.2207u  198.0000m 
  199.00000m   77.4551u  199.0000m 
  200.00000m   77.6883u  200.0000m 
  201.00000m   77.9205u  201.0000m 
  202.00000m   78.1516u  202.0000m 
  203.00000m   78.3816u  203.0000m 
  204.00000m   78.6106u  204.0000m 
  205.00000m   78.8385u  205.0000m 
  206.00000m   79.0654u  206.0000m 
  207.00000m   79.2912u  207.0000m 
  208.00000m   79.5160u  208.0000m 
  209.00000m   79.7397u  209.0000m 
  210.00000m   79.9624u  210.0000m 
  211.00000m   80.1841u  211.0000m 
  212.00000m   80.4047u  212.0000m 
  213.00000m   80.6243u  213.0000m 
  214.00000m   80.8429u  214.0000m 
  215.00000m   81.0605u  215.0000m 
  216.00000m   81.2771u  216.0000m 
  217.00000m   81.4927u  217.0000m 
  218.00000m   81.7073u  218.0000m 
  219.00000m   81.9209u  219.0000m 
  220.00000m   82.1336u  220.0000m 
  221.00000m   82.3452u  221.0000m 
  222.00000m   82.5559u  222.0000m 
  223.00000m   82.7655u  223.0000m 
  224.00000m   82.9743u  224.0000m 
  225.00000m   83.1820u  225.0000m 
  226.00000m   83.3888u  226.0000m 
  227.00000m   83.5946u  227.0000m 
  228.00000m   83.7995u  228.0000m 
  229.00000m   84.0034u  229.0000m 
  230.00000m   84.2064u  230.0000m 
  231.00000m   84.4085u  231.0000m 
  232.00000m   84.6096u  232.0000m 
  233.00000m   84.8097u  233.0000m 
  234.00000m   85.0090u  234.0000m 
  235.00000m   85.2073u  235.0000m 
  236.00000m   85.4047u  236.0000m 
  237.00000m   85.6012u  237.0000m 
  238.00000m   85.7968u  238.0000m 
  239.00000m   85.9914u  239.0000m 
  240.00000m   86.1852u  240.0000m 
  241.00000m   86.3781u  241.0000m 
  242.00000m   86.5700u  242.0000m 
  243.00000m   86.7611u  243.0000m 
  244.00000m   86.9513u  244.0000m 
  245.00000m   87.1406u  245.0000m 
  246.00000m   87.3290u  246.0000m 
  247.00000m   87.5166u  247.0000m 
  248.00000m   87.7033u  248.0000m 
  249.00000m   87.8891u  249.0000m 
  250.00000m   88.0740u  250.0000m 
  251.00000m   88.2581u  251.0000m 
  252.00000m   88.4413u  252.0000m 
  253.00000m   88.6237u  253.0000m 
  254.00000m   88.8052u  254.0000m 
  255.00000m   88.9859u  255.0000m 
  256.00000m   89.1657u  256.0000m 
  257.00000m   89.3447u  257.0000m 
  258.00000m   89.5228u  258.0000m 
  259.00000m   89.7001u  259.0000m 
  260.00000m   89.8766u  260.0000m 
  261.00000m   90.0523u  261.0000m 
  262.00000m   90.2271u  262.0000m 
  263.00000m   90.4011u  263.0000m 
  264.00000m   90.5743u  264.0000m 
  265.00000m   90.7467u  265.0000m 
  266.00000m   90.9183u  266.0000m 
  267.00000m   91.0891u  267.0000m 
  268.00000m   91.2591u  268.0000m 
  269.00000m   91.4283u  269.0000m 
  270.00000m   91.5966u  270.0000m 
  271.00000m   91.7642u  271.0000m 
  272.00000m   91.9310u  272.0000m 
  273.00000m   92.0971u  273.0000m 
  274.00000m   92.2623u  274.0000m 
  275.00000m   92.4268u  275.0000m 
  276.00000m   92.5904u  276.0000m 
  277.00000m   92.7533u  277.0000m 
  278.00000m   92.9155u  278.0000m 
  279.00000m   93.0769u  279.0000m 
  280.00000m   93.2375u  280.0000m 
  281.00000m   93.3973u  281.0000m 
  282.00000m   93.5564u  282.0000m 
  283.00000m   93.7148u  283.0000m 
  284.00000m   93.8724u  284.0000m 
  285.00000m   94.0292u  285.0000m 
  286.00000m   94.1853u  286.0000m 
  287.00000m   94.3407u  287.0000m 
  288.00000m   94.4953u  288.0000m 
  289.00000m   94.6492u  289.0000m 
  290.00000m   94.8023u  290.0000m 
  291.00000m   94.9548u  291.0000m 
  292.00000m   95.1065u  292.0000m 
  293.00000m   95.2574u  293.0000m 
  294.00000m   95.4077u  294.0000m 
  295.00000m   95.5572u  295.0000m 
  296.00000m   95.7061u  296.0000m 
  297.00000m   95.8542u  297.0000m 
  298.00000m   96.0016u  298.0000m 
  299.00000m   96.1483u  299.0000m 
  300.00000m   96.2943u  300.0000m 
  301.00000m   96.4396u  301.0000m 
  302.00000m   96.5842u  302.0000m 
  303.00000m   96.7281u  303.0000m 
  304.00000m   96.8713u  304.0000m 
  305.00000m   97.0138u  305.0000m 
  306.00000m   97.1556u  306.0000m 
  307.00000m   97.2968u  307.0000m 
  308.00000m   97.4373u  308.0000m 
  309.00000m   97.5770u  309.0000m 
  310.00000m   97.7162u  310.0000m 
  311.00000m   97.8546u  311.0000m 
  312.00000m   97.9924u  312.0000m 
  313.00000m   98.1295u  313.0000m 
  314.00000m   98.2659u  314.0000m 
  315.00000m   98.4017u  315.0000m 
  316.00000m   98.5368u  316.0000m 
  317.00000m   98.6713u  317.0000m 
  318.00000m   98.8051u  318.0000m 
  319.00000m   98.9382u  319.0000m 
  320.00000m   99.0707u  320.0000m 
  321.00000m   99.2026u  321.0000m 
  322.00000m   99.3338u  322.0000m 
  323.00000m   99.4644u  323.0000m 
  324.00000m   99.5943u  324.0000m 
  325.00000m   99.7236u  325.0000m 
  326.00000m   99.8523u  326.0000m 
  327.00000m   99.9803u  327.0000m 
  328.00000m  100.1077u  328.0000m 
  329.00000m  100.2345u  329.0000m 
  330.00000m  100.3606u  330.0000m 
  331.00000m  100.4861u  331.0000m 
  332.00000m  100.6111u  332.0000m 
  333.00000m  100.7353u  333.0000m 
  334.00000m  100.8590u  334.0000m 
  335.00000m  100.9821u  335.0000m 
  336.00000m  101.1045u  336.0000m 
  337.00000m  101.2264u  337.0000m 
  338.00000m  101.3476u  338.0000m 
  339.00000m  101.4682u  339.0000m 
  340.00000m  101.5883u  340.0000m 
  341.00000m  101.7077u  341.0000m 
  342.00000m  101.8265u  342.0000m 
  343.00000m  101.9448u  343.0000m 
  344.00000m  102.0624u  344.0000m 
  345.00000m  102.1795u  345.0000m 
  346.00000m  102.2959u  346.0000m 
  347.00000m  102.4118u  347.0000m 
  348.00000m  102.5271u  348.0000m 
  349.00000m  102.6418u  349.0000m 
  350.00000m  102.7560u  350.0000m 
  351.00000m  102.8695u  351.0000m 
  352.00000m  102.9825u  352.0000m 
  353.00000m  103.0949u  353.0000m 
  354.00000m  103.2068u  354.0000m 
  355.00000m  103.3181u  355.0000m 
  356.00000m  103.4288u  356.0000m 
  357.00000m  103.5389u  357.0000m 
  358.00000m  103.6485u  358.0000m 
  359.00000m  103.7575u  359.0000m 
  360.00000m  103.8660u  360.0000m 
  361.00000m  103.9739u  361.0000m 
  362.00000m  104.0813u  362.0000m 
  363.00000m  104.1881u  363.0000m 
  364.00000m  104.2943u  364.0000m 
  365.00000m  104.4001u  365.0000m 
  366.00000m  104.5052u  366.0000m 
  367.00000m  104.5466u  367.0000m 
  368.00000m  104.5779u  368.0000m 
  369.00000m  104.6092u  369.0000m 
  370.00000m  104.6404u  370.0000m 
  371.00000m  104.6715u  371.0000m 
  372.00000m  104.7026u  372.0000m 
  373.00000m  104.7336u  373.0000m 
  374.00000m  104.7645u  374.0000m 
  375.00000m  104.7954u  375.0000m 
  376.00000m  104.8262u  376.0000m 
  377.00000m  104.8569u  377.0000m 
  378.00000m  104.8876u  378.0000m 
  379.00000m  104.9182u  379.0000m 
  380.00000m  104.9487u  380.0000m 
  381.00000m  104.9792u  381.0000m 
  382.00000m  105.0096u  382.0000m 
  383.00000m  105.0399u  383.0000m 
  384.00000m  105.0702u  384.0000m 
  385.00000m  105.1004u  385.0000m 
  386.00000m  105.1306u  386.0000m 
  387.00000m  105.1607u  387.0000m 
  388.00000m  105.1907u  388.0000m 
  389.00000m  105.2207u  389.0000m 
  390.00000m  105.2506u  390.0000m 
  391.00000m  105.2804u  391.0000m 
  392.00000m  105.3102u  392.0000m 
  393.00000m  105.3400u  393.0000m 
  394.00000m  105.3696u  394.0000m 
  395.00000m  105.3993u  395.0000m 
  396.00000m  105.4288u  396.0000m 
  397.00000m  105.4583u  397.0000m 
  398.00000m  105.4878u  398.0000m 
  399.00000m  105.5172u  399.0000m 
  400.00000m  105.5465u  400.0000m 
  401.00000m  105.5758u  401.0000m 
  402.00000m  105.6050u  402.0000m 
  403.00000m  105.6342u  403.0000m 
  404.00000m  105.6633u  404.0000m 
  405.00000m  105.6924u  405.0000m 
  406.00000m  105.7214u  406.0000m 
  407.00000m  105.7503u  407.0000m 
  408.00000m  105.7792u  408.0000m 
  409.00000m  105.8081u  409.0000m 
  410.00000m  105.8369u  410.0000m 
  411.00000m  105.8657u  411.0000m 
  412.00000m  105.8944u  412.0000m 
  413.00000m  105.9230u  413.0000m 
  414.00000m  105.9516u  414.0000m 
  415.00000m  105.9802u  415.0000m 
  416.00000m  106.0087u  416.0000m 
  417.00000m  106.0371u  417.0000m 
  418.00000m  106.0655u  418.0000m 
  419.00000m  106.0939u  419.0000m 
  420.00000m  106.1222u  420.0000m 
  421.00000m  106.1504u  421.0000m 
  422.00000m  106.1787u  422.0000m 
  423.00000m  106.2068u  423.0000m 
  424.00000m  106.2349u  424.0000m 
  425.00000m  106.2630u  425.0000m 
  426.00000m  106.2910u  426.0000m 
  427.00000m  106.3190u  427.0000m 
  428.00000m  106.3470u  428.0000m 
  429.00000m  106.3748u  429.0000m 
  430.00000m  106.4027u  430.0000m 
  431.00000m  106.4305u  431.0000m 
  432.00000m  106.4582u  432.0000m 
  433.00000m  106.4860u  433.0000m 
  434.00000m  106.5136u  434.0000m 
  435.00000m  106.5413u  435.0000m 
  436.00000m  106.5688u  436.0000m 
  437.00000m  106.5964u  437.0000m 
  438.00000m  106.6239u  438.0000m 
  439.00000m  106.6513u  439.0000m 
  440.00000m  106.6787u  440.0000m 
  441.00000m  106.7061u  441.0000m 
  442.00000m  106.7334u  442.0000m 
  443.00000m  106.7607u  443.0000m 
  444.00000m  106.7880u  444.0000m 
  445.00000m  106.8152u  445.0000m 
  446.00000m  106.8423u  446.0000m 
  447.00000m  106.8695u  447.0000m 
  448.00000m  106.8966u  448.0000m 
  449.00000m  106.9236u  449.0000m 
  450.00000m  106.9506u  450.0000m 
  451.00000m  106.9776u  451.0000m 
  452.00000m  107.0045u  452.0000m 
  453.00000m  107.0314u  453.0000m 
  454.00000m  107.0582u  454.0000m 
  455.00000m  107.0851u  455.0000m 
  456.00000m  107.1118u  456.0000m 
  457.00000m  107.1386u  457.0000m 
  458.00000m  107.1653u  458.0000m 
  459.00000m  107.1919u  459.0000m 
  460.00000m  107.2186u  460.0000m 
  461.00000m  107.2451u  461.0000m 
  462.00000m  107.2717u  462.0000m 
  463.00000m  107.2982u  463.0000m 
  464.00000m  107.3247u  464.0000m 
  465.00000m  107.3511u  465.0000m 
  466.00000m  107.3775u  466.0000m 
  467.00000m  107.4039u  467.0000m 
  468.00000m  107.4302u  468.0000m 
  469.00000m  107.4565u  469.0000m 
  470.00000m  107.4828u  470.0000m 
  471.00000m  107.5090u  471.0000m 
  472.00000m  107.5352u  472.0000m 
  473.00000m  107.5614u  473.0000m 
  474.00000m  107.5875u  474.0000m 
  475.00000m  107.6136u  475.0000m 
  476.00000m  107.6397u  476.0000m 
  477.00000m  107.6657u  477.0000m 
  478.00000m  107.6917u  478.0000m 
  479.00000m  107.7177u  479.0000m 
  480.00000m  107.7436u  480.0000m 
  481.00000m  107.7695u  481.0000m 
  482.00000m  107.7953u  482.0000m 
  483.00000m  107.8212u  483.0000m 
  484.00000m  107.8470u  484.0000m 
  485.00000m  107.8727u  485.0000m 
  486.00000m  107.8984u  486.0000m 
  487.00000m  107.9241u  487.0000m 
  488.00000m  107.9498u  488.0000m 
  489.00000m  107.9754u  489.0000m 
  490.00000m  108.0011u  490.0000m 
  491.00000m  108.0266u  491.0000m 
  492.00000m  108.0522u  492.0000m 
  493.00000m  108.0777u  493.0000m 
  494.00000m  108.1032u  494.0000m 
  495.00000m  108.1286u  495.0000m 
  496.00000m  108.1540u  496.0000m 
  497.00000m  108.1794u  497.0000m 
  498.00000m  108.2048u  498.0000m 
  499.00000m  108.2301u  499.0000m 
  500.00000m  108.2554u  500.0000m 
  501.00000m  108.2807u  501.0000m 
  502.00000m  108.3059u  502.0000m 
  503.00000m  108.3311u  503.0000m 
  504.00000m  108.3563u  504.0000m 
  505.00000m  108.3815u  505.0000m 
  506.00000m  108.4066u  506.0000m 
  507.00000m  108.4317u  507.0000m 
  508.00000m  108.4568u  508.0000m 
  509.00000m  108.4818u  509.0000m 
  510.00000m  108.5068u  510.0000m 
  511.00000m  108.5318u  511.0000m 
  512.00000m  108.5567u  512.0000m 
  513.00000m  108.5817u  513.0000m 
