 ****** HSPICE -- O-2018.09-SP2 win64 (Feb 25 2019) ******                      
  Copyright (c) 1986 - 2021 by Synopsys, Inc. All Rights Reserved.              
  This software and the associated documentation are proprietary
  to Synopsys, Inc. This software may only be used in accordance
  with the terms and conditions of a written license agreement with
  Synopsys, Inc. All other use, reproduction, or distribution of
  this software is strictly prohibited.
  Input File: nmos.sp                                                           
  Command line options: C:\synopsys\Hspice_O-2018.09-SP2\WIN64\hspice.com -i nmos.sp -o C:\sdsy\case1\nmos.lis
  Start time: Tue Nov  2 23:45:35 2021
  lic:  
  lic: FLEXlm: SDK_11.7.3 
  lic: USER:   admin                HOSTNAME: DESKTOP-3KO7170 
  lic: HOSTID: "d83bbfb49802"       PID:      44332 
  lic: Using FLEXlm license file: 
  lic: 27000@DESKTOP-3KO7170 
  lic: Checkout 1 hspice 
  lic: License/Maintenance for hspice will expire on 30-dec-2029/2019.2019 
  lic: 1(in_use)/99(total) FLOATING license(s) on SERVER 27000@DESKTOP-3KO7170 
  lic:   
  
      

Element variations(Local):   element              parameter
 *****************************************************************
 ******  option summary
 ******
 runlvl  = 3         bypass  = 2.0000    
 ******
 

 ****** dc transfer curves tnom=  25.000 temp=  25.000 ******
x

 volt         current    voltage   
             m1         vin        
    0.       -930.1197p    0.      
    1.00000m  130.9265n    1.0000m 
    2.00000m  262.1211n    2.0000m 
    3.00000m  392.6537n    3.0000m 
    4.00000m  522.5244n    4.0000m 
    5.00000m  651.7334n    5.0000m 
    6.00000m  780.2808n    6.0000m 
    7.00000m  908.1668n    7.0000m 
    8.00000m    1.0354u    8.0000m 
    9.00000m    1.1620u    9.0000m 
   10.00000m    1.2879u   10.0000m 
   11.00000m    1.4131u   11.0000m 
   12.00000m    1.5377u   12.0000m 
   13.00000m    1.6616u   13.0000m 
   14.00000m    1.7849u   14.0000m 
   15.00000m    1.9075u   15.0000m 
   16.00000m    2.0294u   16.0000m 
   17.00000m    2.1507u   17.0000m 
   18.00000m    2.2713u   18.0000m 
   19.00000m    2.3913u   19.0000m 
   20.00000m    2.5106u   20.0000m 
   21.00000m    2.6292u   21.0000m 
   22.00000m    2.7472u   22.0000m 
   23.00000m    2.8645u   23.0000m 
   24.00000m    2.9812u   24.0000m 
   25.00000m    3.0972u   25.0000m 
   26.00000m    3.2125u   26.0000m 
   27.00000m    3.3272u   27.0000m 
   28.00000m    3.4412u   28.0000m 
   29.00000m    3.5546u   29.0000m 
   30.00000m    3.6673u   30.0000m 
   31.00000m    3.7794u   31.0000m 
   32.00000m    3.8908u   32.0000m 
   33.00000m    4.0015u   33.0000m 
   34.00000m    4.1116u   34.0000m 
   35.00000m    4.2210u   35.0000m 
   36.00000m    4.3298u   36.0000m 
   37.00000m    4.4379u   37.0000m 
   38.00000m    4.5454u   38.0000m 
   39.00000m    4.6522u   39.0000m 
   40.00000m    4.7583u   40.0000m 
   41.00000m    4.8638u   41.0000m 
   42.00000m    4.9686u   42.0000m 
   43.00000m    5.0728u   43.0000m 
   44.00000m    5.1764u   44.0000m 
   45.00000m    5.2792u   45.0000m 
   46.00000m    5.3814u   46.0000m 
   47.00000m    5.4830u   47.0000m 
   48.00000m    5.5839u   48.0000m 
   49.00000m    5.6842u   49.0000m 
   50.00000m    5.7838u   50.0000m 
   51.00000m    5.8827u   51.0000m 
   52.00000m    5.9810u   52.0000m 
   53.00000m    6.0787u   53.0000m 
   54.00000m    6.1757u   54.0000m 
   55.00000m    6.2720u   55.0000m 
   56.00000m    6.3677u   56.0000m 
   57.00000m    6.4627u   57.0000m 
   58.00000m    6.5571u   58.0000m 
   59.00000m    6.6509u   59.0000m 
   60.00000m    6.7440u   60.0000m 
   61.00000m    6.8364u   61.0000m 
   62.00000m    6.9282u   62.0000m 
   63.00000m    7.0193u   63.0000m 
   64.00000m    7.1098u   64.0000m 
   65.00000m    7.1997u   65.0000m 
   66.00000m    7.2889u   66.0000m 
   67.00000m    7.3774u   67.0000m 
   68.00000m    7.4653u   68.0000m 
   69.00000m    7.5526u   69.0000m 
   70.00000m    7.6392u   70.0000m 
   71.00000m    7.7251u   71.0000m 
   72.00000m    7.8105u   72.0000m 
   73.00000m    7.8951u   73.0000m 
   74.00000m    7.9792u   74.0000m 
   75.00000m    8.0626u   75.0000m 
   76.00000m    8.1453u   76.0000m 
   77.00000m    8.2274u   77.0000m 
   78.00000m    8.3089u   78.0000m 
   79.00000m    8.3897u   79.0000m 
   80.00000m    8.4698u   80.0000m 
   81.00000m    8.5494u   81.0000m 
   82.00000m    8.6283u   82.0000m 
   83.00000m    8.7065u   83.0000m 
   84.00000m    8.7841u   84.0000m 
   85.00000m    8.8611u   85.0000m 
   86.00000m    8.9375u   86.0000m 
   87.00000m    9.0132u   87.0000m 
   88.00000m    9.0882u   88.0000m 
   89.00000m    9.1627u   89.0000m 
   90.00000m    9.2365u   90.0000m 
   91.00000m    9.3096u   91.0000m 
   92.00000m    9.3822u   92.0000m 
   93.00000m    9.4540u   93.0000m 
   94.00000m    9.5253u   94.0000m 
   95.00000m    9.5959u   95.0000m 
   96.00000m    9.6659u   96.0000m 
   97.00000m    9.7353u   97.0000m 
   98.00000m    9.8041u   98.0000m 
   99.00000m    9.8722u   99.0000m 
  100.00000m    9.9397u  100.0000m 
  101.00000m   10.0065u  101.0000m 
  102.00000m   10.0728u  102.0000m 
  103.00000m   10.1384u  103.0000m 
  104.00000m   10.2034u  104.0000m 
  105.00000m   10.2677u  105.0000m 
  106.00000m   10.3315u  106.0000m 
  107.00000m   10.3946u  107.0000m 
  108.00000m   10.4571u  108.0000m 
  109.00000m   10.5190u  109.0000m 
  110.00000m   10.5803u  110.0000m 
  111.00000m   10.6410u  111.0000m 
  112.00000m   10.7010u  112.0000m 
  113.00000m   10.7604u  113.0000m 
  114.00000m   10.8193u  114.0000m 
  115.00000m   10.8775u  115.0000m 
  116.00000m   10.9351u  116.0000m 
  117.00000m   10.9921u  117.0000m 
  118.00000m   11.0485u  118.0000m 
  119.00000m   11.1042u  119.0000m 
  120.00000m   11.1594u  120.0000m 
  121.00000m   11.2140u  121.0000m 
  122.00000m   11.2680u  122.0000m 
  123.00000m   11.3214u  123.0000m 
  124.00000m   11.3741u  124.0000m 
  125.00000m   11.4263u  125.0000m 
  126.00000m   11.4779u  126.0000m 
  127.00000m   11.5289u  127.0000m 
  128.00000m   11.5793u  128.0000m 
  129.00000m   11.6292u  129.0000m 
  130.00000m   11.6784u  130.0000m 
  131.00000m   11.7271u  131.0000m 
  132.00000m   11.7751u  132.0000m 
  133.00000m   11.8226u  133.0000m 
  134.00000m   11.8696u  134.0000m 
  135.00000m   11.9159u  135.0000m 
  136.00000m   11.9617u  136.0000m 
  137.00000m   12.0069u  137.0000m 
  138.00000m   12.0515u  138.0000m 
  139.00000m   12.0956u  139.0000m 
  140.00000m   12.1391u  140.0000m 
  141.00000m   12.1820u  141.0000m 
  142.00000m   12.2244u  142.0000m 
  143.00000m   12.2662u  143.0000m 
  144.00000m   12.3075u  144.0000m 
  145.00000m   12.3482u  145.0000m 
  146.00000m   12.3884u  146.0000m 
  147.00000m   12.4280u  147.0000m 
  148.00000m   12.4671u  148.0000m 
  149.00000m   12.5056u  149.0000m 
  150.00000m   12.5436u  150.0000m 
  151.00000m   12.5811u  151.0000m 
  152.00000m   12.6181u  152.0000m 
  153.00000m   12.6545u  153.0000m 
  154.00000m   12.6904u  154.0000m 
  155.00000m   12.7258u  155.0000m 
  156.00000m   12.7607u  156.0000m 
  157.00000m   12.7950u  157.0000m 
  158.00000m   12.8289u  158.0000m 
  159.00000m   12.8622u  159.0000m 
  160.00000m   12.8951u  160.0000m 
  161.00000m   12.9274u  161.0000m 
  162.00000m   12.9593u  162.0000m 
  163.00000m   12.9906u  163.0000m 
  164.00000m   13.0215u  164.0000m 
  165.00000m   13.0519u  165.0000m 
  166.00000m   13.0818u  166.0000m 
  167.00000m   13.1113u  167.0000m 
  168.00000m   13.1403u  168.0000m 
  169.00000m   13.1688u  169.0000m 
  170.00000m   13.1968u  170.0000m 
  171.00000m   13.2245u  171.0000m 
  172.00000m   13.2516u  172.0000m 
  173.00000m   13.2783u  173.0000m 
  174.00000m   13.3046u  174.0000m 
  175.00000m   13.3304u  175.0000m 
  176.00000m   13.3558u  176.0000m 
  177.00000m   13.3808u  177.0000m 
  178.00000m   13.4054u  178.0000m 
  179.00000m   13.4295u  179.0000m 
  180.00000m   13.4532u  180.0000m 
  181.00000m   13.4766u  181.0000m 
  182.00000m   13.4995u  182.0000m 
  183.00000m   13.5220u  183.0000m 
  184.00000m   13.5441u  184.0000m 
  185.00000m   13.5659u  185.0000m 
  186.00000m   13.5873u  186.0000m 
  187.00000m   13.6083u  187.0000m 
  188.00000m   13.6289u  188.0000m 
  189.00000m   13.6492u  189.0000m 
  190.00000m   13.6691u  190.0000m 
  191.00000m   13.6886u  191.0000m 
  192.00000m   13.7078u  192.0000m 
  193.00000m   13.7267u  193.0000m 
  194.00000m   13.7452u  194.0000m 
  195.00000m   13.7634u  195.0000m 
  196.00000m   13.7813u  196.0000m 
  197.00000m   13.7988u  197.0000m 
  198.00000m   13.8160u  198.0000m 
  199.00000m   13.8330u  199.0000m 
  200.00000m   13.8496u  200.0000m 
  201.00000m   13.8659u  201.0000m 
  202.00000m   13.8819u  202.0000m 
  203.00000m   13.8977u  203.0000m 
  204.00000m   13.9131u  204.0000m 
  205.00000m   13.9283u  205.0000m 
  206.00000m   13.9432u  206.0000m 
  207.00000m   13.9578u  207.0000m 
  208.00000m   13.9722u  208.0000m 
  209.00000m   13.9863u  209.0000m 
  210.00000m   14.0002u  210.0000m 
  211.00000m   14.0138u  211.0000m 
  212.00000m   14.0272u  212.0000m 
  213.00000m   14.0403u  213.0000m 
  214.00000m   14.0532u  214.0000m 
  215.00000m   14.0659u  215.0000m 
  216.00000m   14.0783u  216.0000m 
  217.00000m   14.0906u  217.0000m 
  218.00000m   14.1026u  218.0000m 
  219.00000m   14.1144u  219.0000m 
  220.00000m   14.1260u  220.0000m 
  221.00000m   14.1375u  221.0000m 
  222.00000m   14.1487u  222.0000m 
  223.00000m   14.1597u  223.0000m 
  224.00000m   14.1706u  224.0000m 
  225.00000m   14.1812u  225.0000m 
  226.00000m   14.1917u  226.0000m 
  227.00000m   14.2020u  227.0000m 
  228.00000m   14.2122u  228.0000m 
  229.00000m   14.2222u  229.0000m 
  230.00000m   14.2320u  230.0000m 
  231.00000m   14.2417u  231.0000m 
  232.00000m   14.2512u  232.0000m 
  233.00000m   14.2605u  233.0000m 
  234.00000m   14.2697u  234.0000m 
  235.00000m   14.2788u  235.0000m 
  236.00000m   14.2878u  236.0000m 
  237.00000m   14.2965u  237.0000m 
  238.00000m   14.3052u  238.0000m 
  239.00000m   14.3138u  239.0000m 
  240.00000m   14.3222u  240.0000m 
  241.00000m   14.3305u  241.0000m 
  242.00000m   14.3386u  242.0000m 
  243.00000m   14.3467u  243.0000m 
  244.00000m   14.3546u  244.0000m 
  245.00000m   14.3624u  245.0000m 
  246.00000m   14.3702u  246.0000m 
  247.00000m   14.3778u  247.0000m 
  248.00000m   14.3853u  248.0000m 
  249.00000m   14.3927u  249.0000m 
  250.00000m   14.4000u  250.0000m 
  251.00000m   14.4072u  251.0000m 
  252.00000m   14.4144u  252.0000m 
  253.00000m   14.4214u  253.0000m 
  254.00000m   14.4283u  254.0000m 
  255.00000m   14.4352u  255.0000m 
  256.00000m   14.4420u  256.0000m 
  257.00000m   14.4487u  257.0000m 
  258.00000m   14.4553u  258.0000m 
  259.00000m   14.4618u  259.0000m 
  260.00000m   14.4683u  260.0000m 
  261.00000m   14.4747u  261.0000m 
  262.00000m   14.4810u  262.0000m 
  263.00000m   14.4873u  263.0000m 
  264.00000m   14.4935u  264.0000m 
  265.00000m   14.4996u  265.0000m 
  266.00000m   14.5056u  266.0000m 
  267.00000m   14.5116u  267.0000m 
  268.00000m   14.5176u  268.0000m 
  269.00000m   14.5234u  269.0000m 
  270.00000m   14.5292u  270.0000m 
  271.00000m   14.5350u  271.0000m 
  272.00000m   14.5407u  272.0000m 
  273.00000m   14.5463u  273.0000m 
  274.00000m   14.5519u  274.0000m 
  275.00000m   14.5575u  275.0000m 
  276.00000m   14.5630u  276.0000m 
  277.00000m   14.5684u  277.0000m 
  278.00000m   14.5738u  278.0000m 
  279.00000m   14.5792u  279.0000m 
  280.00000m   14.5845u  280.0000m 
  281.00000m   14.5897u  281.0000m 
  282.00000m   14.5950u  282.0000m 
  283.00000m   14.6001u  283.0000m 
  284.00000m   14.6053u  284.0000m 
  285.00000m   14.6104u  285.0000m 
  286.00000m   14.6154u  286.0000m 
  287.00000m   14.6205u  287.0000m 
  288.00000m   14.6254u  288.0000m 
  289.00000m   14.6304u  289.0000m 
  290.00000m   14.6353u  290.0000m 
  291.00000m   14.6402u  291.0000m 
  292.00000m   14.6450u  292.0000m 
  293.00000m   14.6499u  293.0000m 
  294.00000m   14.6546u  294.0000m 
  295.00000m   14.6594u  295.0000m 
  296.00000m   14.6641u  296.0000m 
  297.00000m   14.6688u  297.0000m 
  298.00000m   14.6735u  298.0000m 
  299.00000m   14.6781u  299.0000m 
  300.00000m   14.6827u  300.0000m 
  301.00000m   14.6873u  301.0000m 
  302.00000m   14.6918u  302.0000m 
  303.00000m   14.6964u  303.0000m 
  304.00000m   14.7009u  304.0000m 
  305.00000m   14.7054u  305.0000m 
  306.00000m   14.7098u  306.0000m 
  307.00000m   14.7142u  307.0000m 
  308.00000m   14.7186u  308.0000m 
  309.00000m   14.7230u  309.0000m 
  310.00000m   14.7274u  310.0000m 
  311.00000m   14.7317u  311.0000m 
  312.00000m   14.7361u  312.0000m 
  313.00000m   14.7404u  313.0000m 
  314.00000m   14.7447u  314.0000m 
  315.00000m   14.7489u  315.0000m 
  316.00000m   14.7532u  316.0000m 
  317.00000m   14.7574u  317.0000m 
  318.00000m   14.7616u  318.0000m 
  319.00000m   14.7658u  319.0000m 
  320.00000m   14.7700u  320.0000m 
  321.00000m   14.7741u  321.0000m 
  322.00000m   14.7783u  322.0000m 
  323.00000m   14.7824u  323.0000m 
  324.00000m   14.7865u  324.0000m 
  325.00000m   14.7906u  325.0000m 
  326.00000m   14.7947u  326.0000m 
  327.00000m   14.7987u  327.0000m 
  328.00000m   14.8028u  328.0000m 
  329.00000m   14.8068u  329.0000m 
  330.00000m   14.8108u  330.0000m 
  331.00000m   14.8148u  331.0000m 
  332.00000m   14.8188u  332.0000m 
  333.00000m   14.8228u  333.0000m 
  334.00000m   14.8267u  334.0000m 
  335.00000m   14.8307u  335.0000m 
  336.00000m   14.8346u  336.0000m 
  337.00000m   14.8386u  337.0000m 
  338.00000m   14.8425u  338.0000m 
  339.00000m   14.8464u  339.0000m 
  340.00000m   14.8503u  340.0000m 
  341.00000m   14.8542u  341.0000m 
  342.00000m   14.8580u  342.0000m 
  343.00000m   14.8619u  343.0000m 
  344.00000m   14.8657u  344.0000m 
  345.00000m   14.8696u  345.0000m 
  346.00000m   14.8734u  346.0000m 
  347.00000m   14.8772u  347.0000m 
  348.00000m   14.8810u  348.0000m 
  349.00000m   14.8848u  349.0000m 
  350.00000m   14.8886u  350.0000m 
  351.00000m   14.8924u  351.0000m 
  352.00000m   14.8962u  352.0000m 
  353.00000m   14.9000u  353.0000m 
  354.00000m   14.9037u  354.0000m 
  355.00000m   14.9075u  355.0000m 
  356.00000m   14.9112u  356.0000m 
  357.00000m   14.9149u  357.0000m 
  358.00000m   14.9187u  358.0000m 
  359.00000m   14.9224u  359.0000m 
  360.00000m   14.9261u  360.0000m 
  361.00000m   14.9298u  361.0000m 
  362.00000m   14.9335u  362.0000m 
  363.00000m   14.9372u  363.0000m 
  364.00000m   14.9408u  364.0000m 
  365.00000m   14.9445u  365.0000m 
  366.00000m   14.9482u  366.0000m 
  367.00000m   14.9518u  367.0000m 
  368.00000m   14.9555u  368.0000m 
  369.00000m   14.9591u  369.0000m 
  370.00000m   14.9628u  370.0000m 
  371.00000m   14.9664u  371.0000m 
  372.00000m   14.9700u  372.0000m 
  373.00000m   14.9736u  373.0000m 
  374.00000m   14.9772u  374.0000m 
  375.00000m   14.9808u  375.0000m 
  376.00000m   14.9844u  376.0000m 
  377.00000m   14.9880u  377.0000m 
  378.00000m   14.9916u  378.0000m 
  379.00000m   14.9952u  379.0000m 
  380.00000m   14.9988u  380.0000m 
  381.00000m   15.0024u  381.0000m 
  382.00000m   15.0059u  382.0000m 
  383.00000m   15.0095u  383.0000m 
  384.00000m   15.0131u  384.0000m 
  385.00000m   15.0166u  385.0000m 
  386.00000m   15.0202u  386.0000m 
  387.00000m   15.0237u  387.0000m 
  388.00000m   15.0272u  388.0000m 
  389.00000m   15.0308u  389.0000m 
  390.00000m   15.0343u  390.0000m 
  391.00000m   15.0378u  391.0000m 
  392.00000m   15.0413u  392.0000m 
  393.00000m   15.0449u  393.0000m 
  394.00000m   15.0484u  394.0000m 
  395.00000m   15.0519u  395.0000m 
  396.00000m   15.0554u  396.0000m 
  397.00000m   15.0589u  397.0000m 
  398.00000m   15.0624u  398.0000m 
  399.00000m   15.0659u  399.0000m 
  400.00000m   15.0694u  400.0000m 
  401.00000m   15.0728u  401.0000m 
  402.00000m   15.0763u  402.0000m 
  403.00000m   15.0798u  403.0000m 
  404.00000m   15.0833u  404.0000m 
  405.00000m   15.0867u  405.0000m 
  406.00000m   15.0902u  406.0000m 
  407.00000m   15.0937u  407.0000m 
  408.00000m   15.0971u  408.0000m 
  409.00000m   15.1006u  409.0000m 
  410.00000m   15.1040u  410.0000m 
  411.00000m   15.1075u  411.0000m 
  412.00000m   15.1109u  412.0000m 
  413.00000m   15.1144u  413.0000m 
  414.00000m   15.1178u  414.0000m 
  415.00000m   15.1212u  415.0000m 
  416.00000m   15.1247u  416.0000m 
  417.00000m   15.1281u  417.0000m 
  418.00000m   15.1315u  418.0000m 
  419.00000m   15.1349u  419.0000m 
  420.00000m   15.1384u  420.0000m 
  421.00000m   15.1418u  421.0000m 
  422.00000m   15.1452u  422.0000m 
  423.00000m   15.1486u  423.0000m 
  424.00000m   15.1520u  424.0000m 
  425.00000m   15.1554u  425.0000m 
  426.00000m   15.1588u  426.0000m 
  427.00000m   15.1622u  427.0000m 
  428.00000m   15.1656u  428.0000m 
  429.00000m   15.1690u  429.0000m 
  430.00000m   15.1724u  430.0000m 
  431.00000m   15.1758u  431.0000m 
  432.00000m   15.1792u  432.0000m 
  433.00000m   15.1826u  433.0000m 
  434.00000m   15.1860u  434.0000m 
  435.00000m   15.1893u  435.0000m 
  436.00000m   15.1927u  436.0000m 
  437.00000m   15.1961u  437.0000m 
  438.00000m   15.1995u  438.0000m 
  439.00000m   15.2028u  439.0000m 
  440.00000m   15.2062u  440.0000m 
  441.00000m   15.2096u  441.0000m 
  442.00000m   15.2129u  442.0000m 
  443.00000m   15.2163u  443.0000m 
  444.00000m   15.2197u  444.0000m 
  445.00000m   15.2230u  445.0000m 
  446.00000m   15.2264u  446.0000m 
  447.00000m   15.2297u  447.0000m 
  448.00000m   15.2331u  448.0000m 
  449.00000m   15.2364u  449.0000m 
  450.00000m   15.2398u  450.0000m 
  451.00000m   15.2431u  451.0000m 
  452.00000m   15.2465u  452.0000m 
  453.00000m   15.2498u  453.0000m 
  454.00000m   15.2532u  454.0000m 
  455.00000m   15.2565u  455.0000m 
  456.00000m   15.2598u  456.0000m 
  457.00000m   15.2632u  457.0000m 
  458.00000m   15.2665u  458.0000m 
  459.00000m   15.2698u  459.0000m 
  460.00000m   15.2732u  460.0000m 
  461.00000m   15.2765u  461.0000m 
  462.00000m   15.2798u  462.0000m 
  463.00000m   15.2831u  463.0000m 
  464.00000m   15.2865u  464.0000m 
  465.00000m   15.2898u  465.0000m 
  466.00000m   15.2931u  466.0000m 
  467.00000m   15.2964u  467.0000m 
  468.00000m   15.2997u  468.0000m 
  469.00000m   15.3031u  469.0000m 
  470.00000m   15.3064u  470.0000m 
  471.00000m   15.3097u  471.0000m 
  472.00000m   15.3130u  472.0000m 
  473.00000m   15.3163u  473.0000m 
  474.00000m   15.3196u  474.0000m 
  475.00000m   15.3229u  475.0000m 
  476.00000m   15.3262u  476.0000m 
  477.00000m   15.3295u  477.0000m 
  478.00000m   15.3328u  478.0000m 
  479.00000m   15.3361u  479.0000m 
  480.00000m   15.3394u  480.0000m 
  481.00000m   15.3427u  481.0000m 
  482.00000m   15.3460u  482.0000m 
  483.00000m   15.3493u  483.0000m 
  484.00000m   15.3526u  484.0000m 
  485.00000m   15.3559u  485.0000m 
  486.00000m   15.3592u  486.0000m 
  487.00000m   15.3625u  487.0000m 
  488.00000m   15.3658u  488.0000m 
  489.00000m   15.3691u  489.0000m 
  490.00000m   15.3723u  490.0000m 
  491.00000m   15.3756u  491.0000m 
  492.00000m   15.3789u  492.0000m 
  493.00000m   15.3822u  493.0000m 
  494.00000m   15.3855u  494.0000m 
  495.00000m   15.3888u  495.0000m 
  496.00000m   15.3920u  496.0000m 
  497.00000m   15.3953u  497.0000m 
  498.00000m   15.3986u  498.0000m 
  499.00000m   15.4019u  499.0000m 
  500.00000m   15.4051u  500.0000m 
  501.00000m   15.4084u  501.0000m 
  502.00000m   15.4117u  502.0000m 
  503.00000m   15.4150u  503.0000m 
  504.00000m   15.4182u  504.0000m 
  505.00000m   15.4215u  505.0000m 
  506.00000m   15.4248u  506.0000m 
  507.00000m   15.4280u  507.0000m 
  508.00000m   15.4313u  508.0000m 
  509.00000m   15.4346u  509.0000m 
  510.00000m   15.4378u  510.0000m 
  511.00000m   15.4411u  511.0000m 
  512.00000m   15.4443u  512.0000m 
  513.00000m   15.4476u  513.0000m 
