 ****** HSPICE -- O-2018.09-SP2 win64 (Feb 25 2019) ******                      
  Copyright (c) 1986 - 2021 by Synopsys, Inc. All Rights Reserved.              
  This software and the associated documentation are proprietary
  to Synopsys, Inc. This software may only be used in accordance
  with the terms and conditions of a written license agreement with
  Synopsys, Inc. All other use, reproduction, or distribution of
  this software is strictly prohibited.
  Input File: nmos@50n.sp                                                       
  Command line options: C:\synopsys\Hspice_O-2018.09-SP2\WIN64\hspice.com -i nmos@50n.sp -o C:\sdsy\case1\nmos@50n.lis
  Start time: Wed Nov  3 00:03:22 2021
  lic:  
  lic: FLEXlm: SDK_11.7.3 
  lic: USER:   admin                HOSTNAME: DESKTOP-3KO7170 
  lic: HOSTID: "d83bbfb49802"       PID:      48540 
  lic: Using FLEXlm license file: 
  lic: 27000@DESKTOP-3KO7170 
  lic: Checkout 1 hspice 
  lic: License/Maintenance for hspice will expire on 30-dec-2029/2019.2019 
  lic: 1(in_use)/99(total) FLOATING license(s) on SERVER 27000@DESKTOP-3KO7170 
  lic:   
  
      

Element variations(Local):   element              parameter
 *****************************************************************
 ******  option summary
 ******
 runlvl  = 3         bypass  = 2.0000    
 ******
 

 ****** dc transfer curves tnom=  25.000 temp=  25.000 ******
x

 volt         current    voltage   
             m1         vin        
    0.         -9.2854n    0.      
    1.00000m  181.1564n    1.0000m 
    2.00000m  371.1623n    2.0000m 
    3.00000m  560.7325n    3.0000m 
    4.00000m  749.8670n    4.0000m 
    5.00000m  938.5659n    5.0000m 
    6.00000m    1.1268u    6.0000m 
    7.00000m    1.3147u    7.0000m 
    8.00000m    1.5021u    8.0000m 
    9.00000m    1.6890u    9.0000m 
   10.00000m    1.8755u   10.0000m 
   11.00000m    2.0616u   11.0000m 
   12.00000m    2.2473u   12.0000m 
   13.00000m    2.4325u   13.0000m 
   14.00000m    2.6173u   14.0000m 
   15.00000m    2.8016u   15.0000m 
   16.00000m    2.9855u   16.0000m 
   17.00000m    3.1690u   17.0000m 
   18.00000m    3.3520u   18.0000m 
   19.00000m    3.5346u   19.0000m 
   20.00000m    3.7168u   20.0000m 
   21.00000m    3.8985u   21.0000m 
   22.00000m    4.0798u   22.0000m 
   23.00000m    4.2607u   23.0000m 
   24.00000m    4.4411u   24.0000m 
   25.00000m    4.6211u   25.0000m 
   26.00000m    4.8006u   26.0000m 
   27.00000m    4.9797u   27.0000m 
   28.00000m    5.1584u   28.0000m 
   29.00000m    5.3367u   29.0000m 
   30.00000m    5.5145u   30.0000m 
   31.00000m    5.6918u   31.0000m 
   32.00000m    5.8688u   32.0000m 
   33.00000m    6.0453u   33.0000m 
   34.00000m    6.2213u   34.0000m 
   35.00000m    6.3970u   35.0000m 
   36.00000m    6.5722u   36.0000m 
   37.00000m    6.7469u   37.0000m 
   38.00000m    6.9212u   38.0000m 
   39.00000m    7.0951u   39.0000m 
   40.00000m    7.2686u   40.0000m 
   41.00000m    7.4416u   41.0000m 
   42.00000m    7.6142u   42.0000m 
   43.00000m    7.7863u   43.0000m 
   44.00000m    7.9580u   44.0000m 
   45.00000m    8.1293u   45.0000m 
   46.00000m    8.3002u   46.0000m 
   47.00000m    8.4706u   47.0000m 
   48.00000m    8.6405u   48.0000m 
   49.00000m    8.8101u   49.0000m 
   50.00000m    8.9792u   50.0000m 
   51.00000m    9.1478u   51.0000m 
   52.00000m    9.3160u   52.0000m 
   53.00000m    9.4838u   53.0000m 
   54.00000m    9.6512u   54.0000m 
   55.00000m    9.8181u   55.0000m 
   56.00000m    9.9846u   56.0000m 
   57.00000m   10.1507u   57.0000m 
   58.00000m   10.3163u   58.0000m 
   59.00000m   10.4815u   59.0000m 
   60.00000m   10.6462u   60.0000m 
   61.00000m   10.8105u   61.0000m 
   62.00000m   10.9744u   62.0000m 
   63.00000m   11.1378u   63.0000m 
   64.00000m   11.3008u   64.0000m 
   65.00000m   11.4634u   65.0000m 
   66.00000m   11.6255u   66.0000m 
   67.00000m   11.7872u   67.0000m 
   68.00000m   11.9485u   68.0000m 
   69.00000m   12.1093u   69.0000m 
   70.00000m   12.2697u   70.0000m 
   71.00000m   12.4297u   71.0000m 
   72.00000m   12.5892u   72.0000m 
   73.00000m   12.7483u   73.0000m 
   74.00000m   12.9070u   74.0000m 
   75.00000m   13.0652u   75.0000m 
   76.00000m   13.2230u   76.0000m 
   77.00000m   13.3803u   77.0000m 
   78.00000m   13.5373u   78.0000m 
   79.00000m   13.6937u   79.0000m 
   80.00000m   13.8498u   80.0000m 
   81.00000m   14.0054u   81.0000m 
   82.00000m   14.1606u   82.0000m 
   83.00000m   14.3153u   83.0000m 
   84.00000m   14.4696u   84.0000m 
   85.00000m   14.6235u   85.0000m 
   86.00000m   14.7770u   86.0000m 
   87.00000m   14.9300u   87.0000m 
   88.00000m   15.0825u   88.0000m 
   89.00000m   15.2347u   89.0000m 
   90.00000m   15.3864u   90.0000m 
   91.00000m   15.5377u   91.0000m 
   92.00000m   15.6885u   92.0000m 
   93.00000m   15.8389u   93.0000m 
   94.00000m   15.9889u   94.0000m 
   95.00000m   16.1384u   95.0000m 
   96.00000m   16.2875u   96.0000m 
   97.00000m   16.4362u   97.0000m 
   98.00000m   16.5844u   98.0000m 
   99.00000m   16.7322u   99.0000m 
  100.00000m   16.8796u  100.0000m 
  101.00000m   17.0265u  101.0000m 
  102.00000m   17.1730u  102.0000m 
  103.00000m   17.3190u  103.0000m 
  104.00000m   17.4647u  104.0000m 
  105.00000m   17.6099u  105.0000m 
  106.00000m   17.7546u  106.0000m 
  107.00000m   17.8989u  107.0000m 
  108.00000m   18.0428u  108.0000m 
  109.00000m   18.1863u  109.0000m 
  110.00000m   18.3293u  110.0000m 
  111.00000m   18.4719u  111.0000m 
  112.00000m   18.6141u  112.0000m 
  113.00000m   18.7558u  113.0000m 
  114.00000m   18.8971u  114.0000m 
  115.00000m   19.0379u  115.0000m 
  116.00000m   19.1784u  116.0000m 
  117.00000m   19.3183u  117.0000m 
  118.00000m   19.4579u  118.0000m 
  119.00000m   19.5970u  119.0000m 
  120.00000m   19.7357u  120.0000m 
  121.00000m   19.8740u  121.0000m 
  122.00000m   20.0118u  122.0000m 
  123.00000m   20.1492u  123.0000m 
  124.00000m   20.2861u  124.0000m 
  125.00000m   20.4227u  125.0000m 
  126.00000m   20.5587u  126.0000m 
  127.00000m   20.6944u  127.0000m 
  128.00000m   20.8296u  128.0000m 
  129.00000m   20.9644u  129.0000m 
  130.00000m   21.0988u  130.0000m 
  131.00000m   21.2327u  131.0000m 
  132.00000m   21.3662u  132.0000m 
  133.00000m   21.4992u  133.0000m 
  134.00000m   21.6319u  134.0000m 
  135.00000m   21.7641u  135.0000m 
  136.00000m   21.8958u  136.0000m 
  137.00000m   22.0272u  137.0000m 
  138.00000m   22.1580u  138.0000m 
  139.00000m   22.2885u  139.0000m 
  140.00000m   22.4185u  140.0000m 
  141.00000m   22.5481u  141.0000m 
  142.00000m   22.6773u  142.0000m 
  143.00000m   22.8060u  143.0000m 
  144.00000m   22.9343u  144.0000m 
  145.00000m   23.0622u  145.0000m 
  146.00000m   23.1896u  146.0000m 
  147.00000m   23.3166u  147.0000m 
  148.00000m   23.4432u  148.0000m 
  149.00000m   23.5693u  149.0000m 
  150.00000m   23.6950u  150.0000m 
  151.00000m   23.8203u  151.0000m 
  152.00000m   23.9452u  152.0000m 
  153.00000m   24.0696u  153.0000m 
  154.00000m   24.1936u  154.0000m 
  155.00000m   24.3171u  155.0000m 
  156.00000m   24.4402u  156.0000m 
  157.00000m   24.5629u  157.0000m 
  158.00000m   24.6852u  158.0000m 
  159.00000m   24.8070u  159.0000m 
  160.00000m   24.9284u  160.0000m 
  161.00000m   25.0493u  161.0000m 
  162.00000m   25.1698u  162.0000m 
  163.00000m   25.2899u  163.0000m 
  164.00000m   25.4096u  164.0000m 
  165.00000m   25.5288u  165.0000m 
  166.00000m   25.6476u  166.0000m 
  167.00000m   25.7660u  167.0000m 
  168.00000m   25.8839u  168.0000m 
  169.00000m   26.0015u  169.0000m 
  170.00000m   26.1185u  170.0000m 
  171.00000m   26.2352u  171.0000m 
  172.00000m   26.3514u  172.0000m 
  173.00000m   26.4672u  173.0000m 
  174.00000m   26.5825u  174.0000m 
  175.00000m   26.6975u  175.0000m 
  176.00000m   26.8119u  176.0000m 
  177.00000m   26.9260u  177.0000m 
  178.00000m   27.0396u  178.0000m 
  179.00000m   27.1528u  179.0000m 
  180.00000m   27.2656u  180.0000m 
  181.00000m   27.3780u  181.0000m 
  182.00000m   27.4899u  182.0000m 
  183.00000m   27.6014u  183.0000m 
  184.00000m   27.7124u  184.0000m 
  185.00000m   27.8230u  185.0000m 
  186.00000m   27.9332u  186.0000m 
  187.00000m   28.0430u  187.0000m 
  188.00000m   28.1523u  188.0000m 
  189.00000m   28.2612u  189.0000m 
  190.00000m   28.3697u  190.0000m 
  191.00000m   28.4777u  191.0000m 
  192.00000m   28.5854u  192.0000m 
  193.00000m   28.6925u  193.0000m 
  194.00000m   28.7993u  194.0000m 
  195.00000m   28.9056u  195.0000m 
  196.00000m   29.0115u  196.0000m 
  197.00000m   29.1170u  197.0000m 
  198.00000m   29.2220u  198.0000m 
  199.00000m   29.3267u  199.0000m 
  200.00000m   29.4308u  200.0000m 
  201.00000m   29.5346u  201.0000m 
  202.00000m   29.6379u  202.0000m 
  203.00000m   29.7408u  203.0000m 
  204.00000m   29.8433u  204.0000m 
  205.00000m   29.9454u  205.0000m 
  206.00000m   30.0470u  206.0000m 
  207.00000m   30.1482u  207.0000m 
  208.00000m   30.2489u  208.0000m 
  209.00000m   30.3493u  209.0000m 
  210.00000m   30.4492u  210.0000m 
  211.00000m   30.5486u  211.0000m 
  212.00000m   30.6477u  212.0000m 
  213.00000m   30.7463u  213.0000m 
  214.00000m   30.8445u  214.0000m 
  215.00000m   30.9423u  215.0000m 
  216.00000m   31.0396u  216.0000m 
  217.00000m   31.1366u  217.0000m 
  218.00000m   31.2331u  218.0000m 
  219.00000m   31.3291u  219.0000m 
  220.00000m   31.4248u  220.0000m 
  221.00000m   31.5200u  221.0000m 
  222.00000m   31.6148u  222.0000m 
  223.00000m   31.7091u  223.0000m 
  224.00000m   31.8031u  224.0000m 
  225.00000m   31.8966u  225.0000m 
  226.00000m   31.9897u  226.0000m 
  227.00000m   32.0823u  227.0000m 
  228.00000m   32.1746u  228.0000m 
  229.00000m   32.2664u  229.0000m 
  230.00000m   32.3578u  230.0000m 
  231.00000m   32.4487u  231.0000m 
  232.00000m   32.5393u  232.0000m 
  233.00000m   32.6294u  233.0000m 
  234.00000m   32.7191u  234.0000m 
  235.00000m   32.8083u  235.0000m 
  236.00000m   32.8972u  236.0000m 
  237.00000m   32.9856u  237.0000m 
  238.00000m   33.0736u  238.0000m 
  239.00000m   33.1612u  239.0000m 
  240.00000m   33.2483u  240.0000m 
  241.00000m   33.3351u  241.0000m 
  242.00000m   33.4214u  242.0000m 
  243.00000m   33.5072u  243.0000m 
  244.00000m   33.5927u  244.0000m 
  245.00000m   33.6777u  245.0000m 
  246.00000m   33.7624u  246.0000m 
  247.00000m   33.8466u  247.0000m 
  248.00000m   33.9303u  248.0000m 
  249.00000m   34.0137u  249.0000m 
  250.00000m   34.0966u  250.0000m 
  251.00000m   34.1791u  251.0000m 
  252.00000m   34.2612u  252.0000m 
  253.00000m   34.3429u  253.0000m 
  254.00000m   34.4241u  254.0000m 
  255.00000m   34.5050u  255.0000m 
  256.00000m   34.5854u  256.0000m 
  257.00000m   34.6654u  257.0000m 
  258.00000m   34.7449u  258.0000m 
  259.00000m   34.8241u  259.0000m 
  260.00000m   34.9028u  260.0000m 
  261.00000m   34.9812u  261.0000m 
  262.00000m   35.0590u  262.0000m 
  263.00000m   35.1365u  263.0000m 
  264.00000m   35.2136u  264.0000m 
  265.00000m   35.2902u  265.0000m 
  266.00000m   35.3665u  266.0000m 
  267.00000m   35.4423u  267.0000m 
  268.00000m   35.5177u  268.0000m 
  269.00000m   35.5927u  269.0000m 
  270.00000m   35.6672u  270.0000m 
  271.00000m   35.7414u  271.0000m 
  272.00000m   35.8151u  272.0000m 
  273.00000m   35.8884u  273.0000m 
  274.00000m   35.9613u  274.0000m 
  275.00000m   36.0338u  275.0000m 
  276.00000m   36.1059u  276.0000m 
  277.00000m   36.1776u  277.0000m 
  278.00000m   36.2488u  278.0000m 
  279.00000m   36.3196u  279.0000m 
  280.00000m   36.3901u  280.0000m 
  281.00000m   36.4601u  281.0000m 
  282.00000m   36.5297u  282.0000m 
  283.00000m   36.5989u  283.0000m 
  284.00000m   36.6676u  284.0000m 
  285.00000m   36.7360u  285.0000m 
  286.00000m   36.8040u  286.0000m 
  287.00000m   36.8715u  287.0000m 
  288.00000m   36.9387u  288.0000m 
  289.00000m   37.0054u  289.0000m 
  290.00000m   37.0717u  290.0000m 
  291.00000m   37.1376u  291.0000m 
  292.00000m   37.2031u  292.0000m 
  293.00000m   37.2682u  293.0000m 
  294.00000m   37.3329u  294.0000m 
  295.00000m   37.3972u  295.0000m 
  296.00000m   37.4611u  296.0000m 
  297.00000m   37.5245u  297.0000m 
  298.00000m   37.5876u  298.0000m 
  299.00000m   37.6503u  299.0000m 
  300.00000m   37.7125u  300.0000m 
  301.00000m   37.7744u  301.0000m 
  302.00000m   37.8359u  302.0000m 
  303.00000m   37.8969u  303.0000m 
  304.00000m   37.9576u  304.0000m 
  305.00000m   38.0178u  305.0000m 
  306.00000m   38.0777u  306.0000m 
  307.00000m   38.1371u  307.0000m 
  308.00000m   38.1961u  308.0000m 
  309.00000m   38.2548u  309.0000m 
  310.00000m   38.3130u  310.0000m 
  311.00000m   38.3709u  311.0000m 
  312.00000m   38.4284u  312.0000m 
  313.00000m   38.4854u  313.0000m 
  314.00000m   38.5421u  314.0000m 
  315.00000m   38.5984u  315.0000m 
  316.00000m   38.6542u  316.0000m 
  317.00000m   38.7097u  317.0000m 
  318.00000m   38.7648u  318.0000m 
  319.00000m   38.8195u  319.0000m 
  320.00000m   38.8738u  320.0000m 
  321.00000m   38.9277u  321.0000m 
  322.00000m   38.9812u  322.0000m 
  323.00000m   39.0344u  323.0000m 
  324.00000m   39.0871u  324.0000m 
  325.00000m   39.1395u  325.0000m 
  326.00000m   39.1915u  326.0000m 
  327.00000m   39.2430u  327.0000m 
  328.00000m   39.2942u  328.0000m 
  329.00000m   39.3451u  329.0000m 
  330.00000m   39.3955u  330.0000m 
  331.00000m   39.4455u  331.0000m 
  332.00000m   39.4952u  332.0000m 
  333.00000m   39.5445u  333.0000m 
  334.00000m   39.5934u  334.0000m 
  335.00000m   39.6419u  335.0000m 
  336.00000m   39.6901u  336.0000m 
  337.00000m   39.7378u  337.0000m 
  338.00000m   39.7852u  338.0000m 
  339.00000m   39.8323u  339.0000m 
  340.00000m   39.8789u  340.0000m 
  341.00000m   39.9252u  341.0000m 
  342.00000m   39.9711u  342.0000m 
  343.00000m   40.0166u  343.0000m 
  344.00000m   40.0618u  344.0000m 
  345.00000m   40.1065u  345.0000m 
  346.00000m   40.1510u  346.0000m 
  347.00000m   40.1950u  347.0000m 
  348.00000m   40.2387u  348.0000m 
  349.00000m   40.2820u  349.0000m 
  350.00000m   40.3250u  350.0000m 
  351.00000m   40.3676u  351.0000m 
  352.00000m   40.4098u  352.0000m 
  353.00000m   40.4517u  353.0000m 
  354.00000m   40.4932u  354.0000m 
  355.00000m   40.5344u  355.0000m 
  356.00000m   40.5752u  356.0000m 
  357.00000m   40.6157u  357.0000m 
  358.00000m   40.6558u  358.0000m 
  359.00000m   40.6955u  359.0000m 
  360.00000m   40.7349u  360.0000m 
  361.00000m   40.7740u  361.0000m 
  362.00000m   40.8127u  362.0000m 
  363.00000m   40.8510u  363.0000m 
  364.00000m   40.8891u  364.0000m 
  365.00000m   40.9267u  365.0000m 
  366.00000m   40.9641u  366.0000m 
  367.00000m   41.0010u  367.0000m 
  368.00000m   41.0377u  368.0000m 
  369.00000m   41.0740u  369.0000m 
  370.00000m   41.1100u  370.0000m 
  371.00000m   41.1456u  371.0000m 
  372.00000m   41.1809u  372.0000m 
  373.00000m   41.2159u  373.0000m 
  374.00000m   41.2506u  374.0000m 
  375.00000m   41.2849u  375.0000m 
  376.00000m   41.3189u  376.0000m 
  377.00000m   41.3526u  377.0000m 
  378.00000m   41.3859u  378.0000m 
  379.00000m   41.4190u  379.0000m 
  380.00000m   41.4517u  380.0000m 
  381.00000m   41.4841u  381.0000m 
  382.00000m   41.5162u  382.0000m 
  383.00000m   41.5480u  383.0000m 
  384.00000m   41.5794u  384.0000m 
  385.00000m   41.6106u  385.0000m 
  386.00000m   41.6414u  386.0000m 
  387.00000m   41.6720u  387.0000m 
  388.00000m   41.7022u  388.0000m 
  389.00000m   41.7321u  389.0000m 
  390.00000m   41.7618u  390.0000m 
  391.00000m   41.7911u  391.0000m 
  392.00000m   41.8202u  392.0000m 
  393.00000m   41.8489u  393.0000m 
  394.00000m   41.8774u  394.0000m 
  395.00000m   41.9056u  395.0000m 
  396.00000m   41.9335u  396.0000m 
  397.00000m   41.9611u  397.0000m 
  398.00000m   41.9884u  398.0000m 
  399.00000m   42.0154u  399.0000m 
  400.00000m   42.0422u  400.0000m 
  401.00000m   42.0687u  401.0000m 
  402.00000m   42.0949u  402.0000m 
  403.00000m   42.1208u  403.0000m 
  404.00000m   42.1465u  404.0000m 
  405.00000m   42.1719u  405.0000m 
  406.00000m   42.1970u  406.0000m 
  407.00000m   42.2219u  407.0000m 
  408.00000m   42.2465u  408.0000m 
  409.00000m   42.2709u  409.0000m 
  410.00000m   42.2950u  410.0000m 
  411.00000m   42.3189u  411.0000m 
  412.00000m   42.3425u  412.0000m 
  413.00000m   42.3658u  413.0000m 
  414.00000m   42.3889u  414.0000m 
  415.00000m   42.4118u  415.0000m 
  416.00000m   42.4344u  416.0000m 
  417.00000m   42.4568u  417.0000m 
  418.00000m   42.4789u  418.0000m 
  419.00000m   42.5009u  419.0000m 
  420.00000m   42.5225u  420.0000m 
  421.00000m   42.5440u  421.0000m 
  422.00000m   42.5652u  422.0000m 
  423.00000m   42.5862u  423.0000m 
  424.00000m   42.6070u  424.0000m 
  425.00000m   42.6275u  425.0000m 
  426.00000m   42.6479u  426.0000m 
  427.00000m   42.6680u  427.0000m 
  428.00000m   42.6879u  428.0000m 
  429.00000m   42.7076u  429.0000m 
  430.00000m   42.7271u  430.0000m 
  431.00000m   42.7464u  431.0000m 
  432.00000m   42.7655u  432.0000m 
  433.00000m   42.7844u  433.0000m 
  434.00000m   42.8031u  434.0000m 
  435.00000m   42.8216u  435.0000m 
  436.00000m   42.8399u  436.0000m 
  437.00000m   42.8580u  437.0000m 
  438.00000m   42.8759u  438.0000m 
  439.00000m   42.8937u  439.0000m 
  440.00000m   42.9112u  440.0000m 
  441.00000m   42.9286u  441.0000m 
  442.00000m   42.9458u  442.0000m 
  443.00000m   42.9628u  443.0000m 
  444.00000m   42.9796u  444.0000m 
  445.00000m   42.9963u  445.0000m 
  446.00000m   43.0128u  446.0000m 
  447.00000m   43.0291u  447.0000m 
  448.00000m   43.0453u  448.0000m 
  449.00000m   43.0613u  449.0000m 
  450.00000m   43.0772u  450.0000m 
  451.00000m   43.0929u  451.0000m 
  452.00000m   43.1084u  452.0000m 
  453.00000m   43.1238u  453.0000m 
  454.00000m   43.1390u  454.0000m 
  455.00000m   43.1541u  455.0000m 
  456.00000m   43.1690u  456.0000m 
  457.00000m   43.1838u  457.0000m 
  458.00000m   43.1984u  458.0000m 
  459.00000m   43.2129u  459.0000m 
  460.00000m   43.2273u  460.0000m 
  461.00000m   43.2415u  461.0000m 
  462.00000m   43.2556u  462.0000m 
  463.00000m   43.2696u  463.0000m 
  464.00000m   43.2834u  464.0000m 
  465.00000m   43.2971u  465.0000m 
  466.00000m   43.3107u  466.0000m 
  467.00000m   43.3241u  467.0000m 
  468.00000m   43.3375u  468.0000m 
  469.00000m   43.3507u  469.0000m 
  470.00000m   43.3638u  470.0000m 
  471.00000m   43.3767u  471.0000m 
  472.00000m   43.3896u  472.0000m 
  473.00000m   43.4023u  473.0000m 
  474.00000m   43.4150u  474.0000m 
  475.00000m   43.4275u  475.0000m 
  476.00000m   43.4399u  476.0000m 
  477.00000m   43.4522u  477.0000m 
  478.00000m   43.4644u  478.0000m 
  479.00000m   43.4765u  479.0000m 
  480.00000m   43.4885u  480.0000m 
  481.00000m   43.5004u  481.0000m 
  482.00000m   43.5122u  482.0000m 
  483.00000m   43.5240u  483.0000m 
  484.00000m   43.5356u  484.0000m 
  485.00000m   43.5471u  485.0000m 
  486.00000m   43.5585u  486.0000m 
  487.00000m   43.5699u  487.0000m 
  488.00000m   43.5811u  488.0000m 
  489.00000m   43.5923u  489.0000m 
  490.00000m   43.6034u  490.0000m 
  491.00000m   43.6144u  491.0000m 
  492.00000m   43.6253u  492.0000m 
  493.00000m   43.6361u  493.0000m 
  494.00000m   43.6469u  494.0000m 
  495.00000m   43.6576u  495.0000m 
  496.00000m   43.6682u  496.0000m 
  497.00000m   43.6787u  497.0000m 
  498.00000m   43.6891u  498.0000m 
  499.00000m   43.6995u  499.0000m 
  500.00000m   43.7098u  500.0000m 
  501.00000m   43.7201u  501.0000m 
  502.00000m   43.7302u  502.0000m 
  503.00000m   43.7403u  503.0000m 
  504.00000m   43.7504u  504.0000m 
  505.00000m   43.7603u  505.0000m 
  506.00000m   43.7702u  506.0000m 
  507.00000m   43.7801u  507.0000m 
  508.00000m   43.7899u  508.0000m 
  509.00000m   43.7996u  509.0000m 
  510.00000m   43.8092u  510.0000m 
  511.00000m   43.8188u  511.0000m 
  512.00000m   43.8284u  512.0000m 
  513.00000m   43.8379u  513.0000m 
