 ****** HSPICE -- O-2018.09-SP2 win64 (Feb 25 2019) ******                      
  Copyright (c) 1986 - 2021 by Synopsys, Inc. All Rights Reserved.              
  This software and the associated documentation are proprietary
  to Synopsys, Inc. This software may only be used in accordance
  with the terms and conditions of a written license agreement with
  Synopsys, Inc. All other use, reproduction, or distribution of
  this software is strictly prohibited.
  Input File: pmos@50n.sp                                                       
  Command line options: C:\synopsys\Hspice_O-2018.09-SP2\WIN64\hspice.com -i pmos@50n.sp -o C:\sdsy\case1\pmos@50n.lis
  Start time: Tue Nov  2 23:56:51 2021
  lic:  
  lic: FLEXlm: SDK_11.7.3 
  lic: USER:   admin                HOSTNAME: DESKTOP-3KO7170 
  lic: HOSTID: "d83bbfb49802"       PID:      52192 
  lic: Using FLEXlm license file: 
  lic: 27000@DESKTOP-3KO7170 
  lic: Checkout 1 hspice 
  lic: License/Maintenance for hspice will expire on 30-dec-2029/2019.2019 
  lic: 1(in_use)/99(total) FLOATING license(s) on SERVER 27000@DESKTOP-3KO7170 
  lic:   
  
      

Element variations(Local):   element              parameter
 *****************************************************************
 ******  option summary
 ******
 runlvl  = 3         bypass  = 2.0000    
  **warning** negative-mos conductance =      0:m1               iter=    2
 vds,vgs,vbs =          0.844         0.144        0.8421
  gm,gds,gmbs,ids=     5.097E-06     3.977E-07    -5.387E-09     3.589E-07
 ******
 

 ****** dc transfer curves tnom=  25.000 temp=  25.000 ******
x

 volt         current    voltage   
             m1         vin        
    0.       -281.1633p    0.      
    1.00000m -281.1633p    1.0000m 
    2.00000m -281.1633p    2.0000m 
    3.00000m -281.1633p    3.0000m 
    4.00000m -281.1633p    4.0000m 
    5.00000m -281.1633p    5.0000m 
    6.00000m -281.1633p    6.0000m 
    7.00000m -281.1633p    7.0000m 
    8.00000m -281.1633p    8.0000m 
    9.00000m -281.1633p    9.0000m 
   10.00000m -281.1633p   10.0000m 
   11.00000m -281.1633p   11.0000m 
   12.00000m -281.1633p   12.0000m 
   13.00000m -281.1633p   13.0000m 
   14.00000m -281.1633p   14.0000m 
   15.00000m -281.1633p   15.0000m 
   16.00000m -281.1633p   16.0000m 
   17.00000m -281.1633p   17.0000m 
   18.00000m -281.1633p   18.0000m 
   19.00000m -281.1633p   19.0000m 
   20.00000m -281.1633p   20.0000m 
   21.00000m -281.1633p   21.0000m 
   22.00000m -281.1633p   22.0000m 
   23.00000m -281.1633p   23.0000m 
   24.00000m -281.1633p   24.0000m 
   25.00000m -281.1633p   25.0000m 
   26.00000m -281.1633p   26.0000m 
   27.00000m -281.1633p   27.0000m 
   28.00000m -281.1633p   28.0000m 
   29.00000m -281.1633p   29.0000m 
   30.00000m -281.1633p   30.0000m 
   31.00000m -281.1633p   31.0000m 
   32.00000m -281.1633p   32.0000m 
   33.00000m -281.1633p   33.0000m 
   34.00000m -281.1633p   34.0000m 
   35.00000m -281.1633p   35.0000m 
   36.00000m -281.1633p   36.0000m 
   37.00000m -281.1633p   37.0000m 
   38.00000m -281.1633p   38.0000m 
   39.00000m -281.1633p   39.0000m 
   40.00000m -281.1633p   40.0000m 
   41.00000m -281.1633p   41.0000m 
   42.00000m -281.1633p   42.0000m 
   43.00000m -281.1633p   43.0000m 
   44.00000m -281.1633p   44.0000m 
   45.00000m -281.1633p   45.0000m 
   46.00000m -281.1633p   46.0000m 
   47.00000m -281.1633p   47.0000m 
   48.00000m -281.1633p   48.0000m 
   49.00000m -281.1633p   49.0000m 
   50.00000m -281.1633p   50.0000m 
   51.00000m -281.1633p   51.0000m 
   52.00000m -281.1633p   52.0000m 
   53.00000m -281.1633p   53.0000m 
   54.00000m -281.1633p   54.0000m 
   55.00000m -281.1633p   55.0000m 
   56.00000m -281.1633p   56.0000m 
   57.00000m -281.1633p   57.0000m 
   58.00000m -281.1633p   58.0000m 
   59.00000m -281.1633p   59.0000m 
   60.00000m -281.1633p   60.0000m 
   61.00000m -281.1633p   61.0000m 
   62.00000m -281.1633p   62.0000m 
   63.00000m -281.1633p   63.0000m 
   64.00000m -281.1633p   64.0000m 
   65.00000m -281.1633p   65.0000m 
   66.00000m -281.1633p   66.0000m 
   67.00000m -281.1633p   67.0000m 
   68.00000m -281.1633p   68.0000m 
   69.00000m -281.1633p   69.0000m 
   70.00000m -281.1633p   70.0000m 
   71.00000m -281.1633p   71.0000m 
   72.00000m -281.1633p   72.0000m 
   73.00000m -281.1633p   73.0000m 
   74.00000m -281.1633p   74.0000m 
   75.00000m -281.1633p   75.0000m 
   76.00000m -281.1633p   76.0000m 
   77.00000m -281.1633p   77.0000m 
   78.00000m -281.1633p   78.0000m 
   79.00000m -281.1633p   79.0000m 
   80.00000m -281.1633p   80.0000m 
   81.00000m -281.1633p   81.0000m 
   82.00000m -281.1633p   82.0000m 
   83.00000m -281.1633p   83.0000m 
   84.00000m -281.1633p   84.0000m 
   85.00000m -281.1633p   85.0000m 
   86.00000m -281.1633p   86.0000m 
   87.00000m -281.1633p   87.0000m 
   88.00000m -281.1633p   88.0000m 
   89.00000m -281.1633p   89.0000m 
   90.00000m -281.1633p   90.0000m 
   91.00000m -281.1633p   91.0000m 
   92.00000m -281.1633p   92.0000m 
   93.00000m -281.1633p   93.0000m 
   94.00000m -281.1633p   94.0000m 
   95.00000m -281.1633p   95.0000m 
   96.00000m -281.1633p   96.0000m 
   97.00000m -281.1633p   97.0000m 
   98.00000m -281.1633p   98.0000m 
   99.00000m -281.1633p   99.0000m 
  100.00000m -281.1633p  100.0000m 
  101.00000m -281.1633p  101.0000m 
  102.00000m -281.1633p  102.0000m 
  103.00000m -281.1633p  103.0000m 
  104.00000m -281.1633p  104.0000m 
  105.00000m -281.1633p  105.0000m 
  106.00000m -281.1633p  106.0000m 
  107.00000m -281.1633p  107.0000m 
  108.00000m -281.1633p  108.0000m 
  109.00000m -281.1634p  109.0000m 
  110.00000m -281.1634p  110.0000m 
  111.00000m -281.1634p  111.0000m 
  112.00000m -281.1634p  112.0000m 
  113.00000m -281.1634p  113.0000m 
  114.00000m -281.1634p  114.0000m 
  115.00000m -281.1634p  115.0000m 
  116.00000m -281.1634p  116.0000m 
  117.00000m -281.1634p  117.0000m 
  118.00000m -281.1634p  118.0000m 
  119.00000m -281.1634p  119.0000m 
  120.00000m -281.1634p  120.0000m 
  121.00000m -281.1634p  121.0000m 
  122.00000m -281.1634p  122.0000m 
  123.00000m -281.1634p  123.0000m 
  124.00000m -281.1634p  124.0000m 
  125.00000m -281.1634p  125.0000m 
  126.00000m -281.1634p  126.0000m 
  127.00000m -281.1634p  127.0000m 
  128.00000m -281.1634p  128.0000m 
  129.00000m -281.1634p  129.0000m 
  130.00000m -281.1634p  130.0000m 
  131.00000m -281.1634p  131.0000m 
  132.00000m -281.1634p  132.0000m 
  133.00000m -281.1634p  133.0000m 
  134.00000m -281.1634p  134.0000m 
  135.00000m -281.1634p  135.0000m 
  136.00000m -281.1634p  136.0000m 
  137.00000m -281.1634p  137.0000m 
  138.00000m -281.1634p  138.0000m 
  139.00000m -281.1634p  139.0000m 
  140.00000m -281.1634p  140.0000m 
  141.00000m -281.1634p  141.0000m 
  142.00000m -281.1634p  142.0000m 
  143.00000m -281.1634p  143.0000m 
  144.00000m -281.1634p  144.0000m 
  145.00000m -281.1634p  145.0000m 
  146.00000m -281.1634p  146.0000m 
  147.00000m -281.1634p  147.0000m 
  148.00000m -281.1634p  148.0000m 
  149.00000m -281.1634p  149.0000m 
  150.00000m -281.1634p  150.0000m 
  151.00000m -281.1634p  151.0000m 
  152.00000m -281.1635p  152.0000m 
  153.00000m -281.1635p  153.0000m 
  154.00000m -281.1635p  154.0000m 
  155.00000m -281.1635p  155.0000m 
  156.00000m -281.1635p  156.0000m 
  157.00000m -281.1635p  157.0000m 
  158.00000m -281.1635p  158.0000m 
  159.00000m -281.1635p  159.0000m 
  160.00000m -281.1635p  160.0000m 
  161.00000m -281.1635p  161.0000m 
  162.00000m -281.1635p  162.0000m 
  163.00000m -281.1635p  163.0000m 
  164.00000m -281.1635p  164.0000m 
  165.00000m -281.1635p  165.0000m 
  166.00000m -281.1635p  166.0000m 
  167.00000m -281.1635p  167.0000m 
  168.00000m -281.1636p  168.0000m 
  169.00000m -281.1636p  169.0000m 
  170.00000m -281.1636p  170.0000m 
  171.00000m -281.1636p  171.0000m 
  172.00000m -281.1636p  172.0000m 
  173.00000m -281.1636p  173.0000m 
  174.00000m -281.1636p  174.0000m 
  175.00000m -281.1636p  175.0000m 
  176.00000m -281.1636p  176.0000m 
  177.00000m -281.1636p  177.0000m 
  178.00000m -281.1637p  178.0000m 
  179.00000m -281.1637p  179.0000m 
  180.00000m -281.1637p  180.0000m 
  181.00000m -281.1637p  181.0000m 
  182.00000m -281.1637p  182.0000m 
  183.00000m -281.1637p  183.0000m 
  184.00000m -281.1637p  184.0000m 
  185.00000m -281.1637p  185.0000m 
  186.00000m -281.1638p  186.0000m 
  187.00000m -281.1638p  187.0000m 
  188.00000m -281.1638p  188.0000m 
  189.00000m -281.1638p  189.0000m 
  190.00000m -281.1638p  190.0000m 
  191.00000m -281.1639p  191.0000m 
  192.00000m -281.1639p  192.0000m 
  193.00000m -281.1639p  193.0000m 
  194.00000m -281.1639p  194.0000m 
  195.00000m -281.1639p  195.0000m 
  196.00000m -281.1640p  196.0000m 
  197.00000m -281.1640p  197.0000m 
  198.00000m -281.1640p  198.0000m 
  199.00000m -281.1640p  199.0000m 
  200.00000m -281.1641p  200.0000m 
  201.00000m -281.1641p  201.0000m 
  202.00000m -281.1641p  202.0000m 
  203.00000m -281.1641p  203.0000m 
  204.00000m -281.1642p  204.0000m 
  205.00000m -281.1642p  205.0000m 
  206.00000m -281.1642p  206.0000m 
  207.00000m -281.1643p  207.0000m 
  208.00000m -281.1643p  208.0000m 
  209.00000m -281.1643p  209.0000m 
  210.00000m -281.1644p  210.0000m 
  211.00000m -281.1644p  211.0000m 
  212.00000m -281.1645p  212.0000m 
  213.00000m -281.1645p  213.0000m 
  214.00000m -281.1645p  214.0000m 
  215.00000m -281.1646p  215.0000m 
  216.00000m -281.1646p  216.0000m 
  217.00000m -281.1647p  217.0000m 
  218.00000m -281.1647p  218.0000m 
  219.00000m -281.1648p  219.0000m 
  220.00000m -281.1648p  220.0000m 
  221.00000m -281.1649p  221.0000m 
  222.00000m -281.1650p  222.0000m 
  223.00000m -281.1650p  223.0000m 
  224.00000m -281.1651p  224.0000m 
  225.00000m -281.1651p  225.0000m 
  226.00000m -281.1652p  226.0000m 
  227.00000m -281.1653p  227.0000m 
  228.00000m -281.1654p  228.0000m 
  229.00000m -281.1654p  229.0000m 
  230.00000m -281.1655p  230.0000m 
  231.00000m -281.1656p  231.0000m 
  232.00000m -281.1657p  232.0000m 
  233.00000m -281.1658p  233.0000m 
  234.00000m -281.1658p  234.0000m 
  235.00000m -281.1659p  235.0000m 
  236.00000m -281.1660p  236.0000m 
  237.00000m -281.1661p  237.0000m 
  238.00000m -281.1662p  238.0000m 
  239.00000m -281.1663p  239.0000m 
  240.00000m -281.1665p  240.0000m 
  241.00000m -281.1666p  241.0000m 
  242.00000m -281.1667p  242.0000m 
  243.00000m -281.1668p  243.0000m 
  244.00000m -281.1669p  244.0000m 
  245.00000m -281.1671p  245.0000m 
  246.00000m -281.1672p  246.0000m 
  247.00000m -281.1674p  247.0000m 
  248.00000m -281.1675p  248.0000m 
  249.00000m -281.1677p  249.0000m 
  250.00000m -281.1678p  250.0000m 
  251.00000m -281.1680p  251.0000m 
  252.00000m -281.1682p  252.0000m 
  253.00000m -281.1683p  253.0000m 
  254.00000m -281.1685p  254.0000m 
  255.00000m -281.1687p  255.0000m 
  256.00000m -281.1689p  256.0000m 
  257.00000m -281.1691p  257.0000m 
  258.00000m -281.1693p  258.0000m 
  259.00000m -281.1695p  259.0000m 
  260.00000m -281.1698p  260.0000m 
  261.00000m -281.1700p  261.0000m 
  262.00000m -281.1702p  262.0000m 
  263.00000m -281.1705p  263.0000m 
  264.00000m -281.1708p  264.0000m 
  265.00000m -281.1710p  265.0000m 
  266.00000m -281.1713p  266.0000m 
  267.00000m -281.1716p  267.0000m 
  268.00000m -281.1719p  268.0000m 
  269.00000m -281.1722p  269.0000m 
  270.00000m -281.1726p  270.0000m 
  271.00000m -281.1729p  271.0000m 
  272.00000m -281.1732p  272.0000m 
  273.00000m -281.1736p  273.0000m 
  274.00000m -281.1740p  274.0000m 
  275.00000m -281.1744p  275.0000m 
  276.00000m -281.1748p  276.0000m 
  277.00000m -281.1752p  277.0000m 
  278.00000m -281.1756p  278.0000m 
  279.00000m -281.1761p  279.0000m 
  280.00000m -281.1765p  280.0000m 
  281.00000m -281.1770p  281.0000m 
  282.00000m -281.1775p  282.0000m 
  283.00000m -281.1780p  283.0000m 
  284.00000m -281.1786p  284.0000m 
  285.00000m -281.1791p  285.0000m 
  286.00000m -281.1797p  286.0000m 
  287.00000m -281.1803p  287.0000m 
  288.00000m -281.1809p  288.0000m 
  289.00000m -281.1816p  289.0000m 
  290.00000m -281.1822p  290.0000m 
  291.00000m -281.1829p  291.0000m 
  292.00000m -281.1836p  292.0000m 
  293.00000m -281.1844p  293.0000m 
  294.00000m -281.1852p  294.0000m 
  295.00000m -281.1859p  295.0000m 
  296.00000m -281.1868p  296.0000m 
  297.00000m -281.1876p  297.0000m 
  298.00000m -281.1885p  298.0000m 
  299.00000m -281.1894p  299.0000m 
  300.00000m -281.1904p  300.0000m 
  301.00000m -281.1914p  301.0000m 
  302.00000m -281.1924p  302.0000m 
  303.00000m -281.1934p  303.0000m 
  304.00000m -281.1945p  304.0000m 
  305.00000m -281.1957p  305.0000m 
  306.00000m -281.1968p  306.0000m 
  307.00000m -281.1981p  307.0000m 
  308.00000m -281.1993p  308.0000m 
  309.00000m -281.2006p  309.0000m 
  310.00000m -281.2020p  310.0000m 
  311.00000m -281.2034p  311.0000m 
  312.00000m -281.2048p  312.0000m 
  313.00000m -281.2063p  313.0000m 
  314.00000m -281.2079p  314.0000m 
  315.00000m -281.2095p  315.0000m 
  316.00000m -281.2112p  316.0000m 
  317.00000m -281.2129p  317.0000m 
  318.00000m -281.2147p  318.0000m 
  319.00000m -281.2166p  319.0000m 
  320.00000m -281.2185p  320.0000m 
  321.00000m -281.2205p  321.0000m 
  322.00000m -281.2226p  322.0000m 
  323.00000m -281.2247p  323.0000m 
  324.00000m -281.2270p  324.0000m 
  325.00000m -281.2293p  325.0000m 
  326.00000m -281.2316p  326.0000m 
  327.00000m -281.2341p  327.0000m 
  328.00000m -281.2367p  328.0000m 
  329.00000m -281.2393p  329.0000m 
  330.00000m -281.2421p  330.0000m 
  331.00000m -281.2449p  331.0000m 
  332.00000m -281.2479p  332.0000m 
  333.00000m -281.2509p  333.0000m 
  334.00000m -281.2541p  334.0000m 
  335.00000m -281.2574p  335.0000m 
  336.00000m -281.2608p  336.0000m 
  337.00000m -281.2643p  337.0000m 
  338.00000m -281.2679p  338.0000m 
  339.00000m -281.2717p  339.0000m 
  340.00000m -281.2756p  340.0000m 
  341.00000m -281.2797p  341.0000m 
  342.00000m -281.2839p  342.0000m 
  343.00000m -281.2882p  343.0000m 
  344.00000m -281.2927p  344.0000m 
  345.00000m -281.2974p  345.0000m 
  346.00000m -281.3022p  346.0000m 
  347.00000m -281.3072p  347.0000m 
  348.00000m -281.3124p  348.0000m 
  349.00000m -281.3177p  349.0000m 
  350.00000m -281.3233p  350.0000m 
  351.00000m -281.3290p  351.0000m 
  352.00000m -281.3350p  352.0000m 
  353.00000m -281.3412p  353.0000m 
  354.00000m -281.3476p  354.0000m 
  355.00000m -281.3542p  355.0000m 
  356.00000m -281.3610p  356.0000m 
  357.00000m -281.3681p  357.0000m 
  358.00000m -281.3755p  358.0000m 
  359.00000m -281.3831p  359.0000m 
  360.00000m -281.3910p  360.0000m 
  361.00000m -281.3992p  361.0000m 
  362.00000m -281.4076p  362.0000m 
  363.00000m -281.4164p  363.0000m 
  364.00000m -281.4255p  364.0000m 
  365.00000m -281.4349p  365.0000m 
  366.00000m -281.4446p  366.0000m 
  367.00000m -281.4547p  367.0000m 
  368.00000m -281.4651p  368.0000m 
  369.00000m -281.4759p  369.0000m 
  370.00000m -281.4871p  370.0000m 
  371.00000m -281.4987p  371.0000m 
  372.00000m -281.5107p  372.0000m 
  373.00000m -281.5232p  373.0000m 
  374.00000m -281.5360p  374.0000m 
  375.00000m -281.5494p  375.0000m 
  376.00000m -281.5632p  376.0000m 
  377.00000m -281.5775p  377.0000m 
  378.00000m -281.5923p  378.0000m 
  379.00000m -281.6076p  379.0000m 
  380.00000m -281.6235p  380.0000m 
  381.00000m -281.6399p  381.0000m 
  382.00000m -281.6569p  382.0000m 
  383.00000m -281.6745p  383.0000m 
  384.00000m -281.6927p  384.0000m 
  385.00000m -281.7116p  385.0000m 
  386.00000m -281.7312p  386.0000m 
  387.00000m -281.7514p  387.0000m 
  388.00000m -281.7724p  388.0000m 
  389.00000m -281.7941p  389.0000m 
  390.00000m -281.8165p  390.0000m 
  391.00000m -281.8398p  391.0000m 
  392.00000m -281.8639p  392.0000m 
  393.00000m -281.8888p  393.0000m 
  394.00000m -281.9146p  394.0000m 
  395.00000m -281.9414p  395.0000m 
  396.00000m -281.9690p  396.0000m 
  397.00000m -281.9977p  397.0000m 
  398.00000m -282.0273p  398.0000m 
  399.00000m -282.0580p  399.0000m 
  400.00000m -282.0898p  400.0000m 
  401.00000m -282.1227p  401.0000m 
  402.00000m -282.1567p  402.0000m 
  403.00000m -282.1920p  403.0000m 
  404.00000m -282.2285p  404.0000m 
  405.00000m -282.2663p  405.0000m 
  406.00000m -282.3054p  406.0000m 
  407.00000m -282.3459p  407.0000m 
  408.00000m -282.3878p  408.0000m 
  409.00000m -282.4311p  409.0000m 
  410.00000m -282.4760p  410.0000m 
  411.00000m -282.5225p  411.0000m 
  412.00000m -282.5706p  412.0000m 
  413.00000m -282.6204p  413.0000m 
  414.00000m -282.6720p  414.0000m 
  415.00000m -282.7253p  415.0000m 
  416.00000m -282.7805p  416.0000m 
  417.00000m -282.8377p  417.0000m 
  418.00000m -282.8968p  418.0000m 
  419.00000m -282.9581p  419.0000m 
  420.00000m -283.0214p  420.0000m 
  421.00000m -283.0870p  421.0000m 
  422.00000m -283.1549p  422.0000m 
  423.00000m -283.2252p  423.0000m 
  424.00000m -283.2979p  424.0000m 
  425.00000m -283.3731p  425.0000m 
  426.00000m -283.4510p  426.0000m 
  427.00000m -283.5316p  427.0000m 
  428.00000m -283.6150p  428.0000m 
  429.00000m -283.7013p  429.0000m 
  430.00000m -283.7906p  430.0000m 
  431.00000m -283.8831p  431.0000m 
  432.00000m -283.9787p  432.0000m 
  433.00000m -284.0777p  433.0000m 
  434.00000m -284.1802p  434.0000m 
  435.00000m -284.2862p  435.0000m 
  436.00000m -284.3959p  436.0000m 
  437.00000m -284.5094p  437.0000m 
  438.00000m -284.6268p  438.0000m 
  439.00000m -284.7484p  439.0000m 
  440.00000m -284.8741p  440.0000m 
  441.00000m -285.0042p  441.0000m 
  442.00000m -285.1389p  442.0000m 
  443.00000m -285.2782p  443.0000m 
  444.00000m -285.4223p  444.0000m 
  445.00000m -285.5715p  445.0000m 
  446.00000m -285.7258p  446.0000m 
  447.00000m -285.8854p  447.0000m 
  448.00000m -286.0506p  448.0000m 
  449.00000m -286.2215p  449.0000m 
  450.00000m -286.3984p  450.0000m 
  451.00000m -286.5813p  451.0000m 
  452.00000m -286.7705p  452.0000m 
  453.00000m -286.9663p  453.0000m 
  454.00000m -287.1689p  454.0000m 
  455.00000m -287.3784p  455.0000m 
  456.00000m -287.5952p  456.0000m 
  457.00000m -287.8195p  457.0000m 
  458.00000m -288.0515p  458.0000m 
  459.00000m -288.2915p  459.0000m 
  460.00000m -288.5397p  460.0000m 
  461.00000m -288.7965p  461.0000m 
  462.00000m -289.0622p  462.0000m 
  463.00000m -289.3370p  463.0000m 
  464.00000m -289.6212p  464.0000m 
  465.00000m -289.9152p  465.0000m 
  466.00000m -290.2193p  466.0000m 
  467.00000m -290.5339p  467.0000m 
  468.00000m -290.8592p  468.0000m 
  469.00000m -291.1958p  469.0000m 
  470.00000m -291.5438p  470.0000m 
  471.00000m -291.9038p  471.0000m 
  472.00000m -292.2761p  472.0000m 
  473.00000m -292.6612p  473.0000m 
  474.00000m -293.0595p  474.0000m 
  475.00000m -293.4713p  475.0000m 
  476.00000m -293.8973p  476.0000m 
  477.00000m -294.3379p  477.0000m 
  478.00000m -294.7934p  478.0000m 
  479.00000m -295.2646p  479.0000m 
  480.00000m -295.7518p  480.0000m 
  481.00000m -296.2556p  481.0000m 
  482.00000m -296.7767p  482.0000m 
  483.00000m -297.3154p  483.0000m 
  484.00000m -297.8726p  484.0000m 
  485.00000m -298.4487p  485.0000m 
  486.00000m -299.0444p  486.0000m 
  487.00000m -299.6604p  487.0000m 
  488.00000m -300.2973p  488.0000m 
  489.00000m -300.9558p  489.0000m 
  490.00000m -301.6367p  490.0000m 
  491.00000m -302.3408p  491.0000m 
  492.00000m -303.0687p  492.0000m 
  493.00000m -303.8213p  493.0000m 
  494.00000m -304.5993p  494.0000m 
  495.00000m -305.4038p  495.0000m 
  496.00000m -306.2355p  496.0000m 
  497.00000m -307.0953p  497.0000m 
  498.00000m -307.9841p  498.0000m 
  499.00000m -308.9031p  499.0000m 
  500.00000m -309.8530p  500.0000m 
  501.00000m -310.8350p  501.0000m 
  502.00000m -311.8502p  502.0000m 
  503.00000m -312.8996p  503.0000m 
  504.00000m -313.9843p  504.0000m 
  505.00000m -315.1056p  505.0000m 
  506.00000m -316.2646p  506.0000m 
  507.00000m -317.4626p  507.0000m 
