 ****** HSPICE -- O-2018.09-SP2 win64 (Feb 25 2019) ******                      
  Copyright (c) 1986 - 2021 by Synopsys, Inc. All Rights Reserved.              
  This software and the associated documentation are proprietary
  to Synopsys, Inc. This software may only be used in accordance
  with the terms and conditions of a written license agreement with
  Synopsys, Inc. All other use, reproduction, or distribution of
  this software is strictly prohibited.
  Input File: M1sample.sp                                                       
  Command line options: C:\synopsys\Hspice_O-2018.09-SP2\WIN64\hspice.com -i M1sample.sp -o C:\mdsy\proj2\M1sample.lis
  Start time: Sun Dec  5 20:38:35 2021
  lic:  
  lic: FLEXlm: SDK_11.7.3 
  lic: USER:   admin                HOSTNAME: DESKTOP-3KO7170 
  lic: HOSTID: "d83bbfb49802"       PID:      29348 
  lic: Using FLEXlm license file: 
  lic: 27000@DESKTOP-3KO7170 
  lic: Checkout 1 hspice 
  lic: License/Maintenance for hspice will expire on 30-dec-2029/2019.2019 
  lic: 1(in_use)/99(total) FLOATING license(s) on SERVER 27000@DESKTOP-3KO7170 
  lic:   
 

  
      

Element variations(Local):   element              parameter
 *****************************************************************
 ******  option summary
 ******
 runlvl  = 3         bypass  = 2.0000    
 ******
 

 ****** dc transfer curves tnom=  25.000 temp=  25.000 ******
x

 volt         param      param      param     
             gm         ids        vth        
    0.        779.4459f   26.5415f  571.4526m 
    1.00000m  802.6750f   27.3325f  571.4526m 
    2.00000m  826.5964f   28.1471f  571.4526m 
    3.00000m  851.2306f   28.9859f  571.4526m 
    4.00000m  876.5990f   29.8498f  571.4526m 
    5.00000m  902.7234f   30.7394f  571.4526m 
    6.00000m  929.6263f   31.6555f  571.4526m 
    7.00000m  957.3310f   32.5989f  571.4526m 
    8.00000m  985.8612f   33.5704f  571.4526m 
    9.00000m    1.0152p   34.5709f  571.4526m 
   10.00000m    1.0455p   35.6012f  571.4526m 
   11.00000m    1.0767p   36.6622f  571.4526m 
   12.00000m    1.1087p   37.7548f  571.4526m 
   13.00000m    1.1418p   38.8800f  571.4526m 
   14.00000m    1.1758p   40.0387f  571.4526m 
   15.00000m    1.2109p   41.2320f  571.4526m 
   16.00000m    1.2469p   42.4608f  571.4526m 
   17.00000m    1.2841p   43.7262f  571.4526m 
   18.00000m    1.3224p   45.0293f  571.4526m 
   19.00000m    1.3618p   46.3713f  571.4526m 
   20.00000m    1.4024p   47.7533f  571.4526m 
   21.00000m    1.4442p   49.1764f  571.4526m 
   22.00000m    1.4872p   50.6420f  571.4526m 
   23.00000m    1.5315p   52.1512f  571.4526m 
   24.00000m    1.5772p   53.7055f  571.4526m 
   25.00000m    1.6242p   55.3060f  571.4526m 
   26.00000m    1.6726p   56.9542f  571.4526m 
   27.00000m    1.7224p   58.6516f  571.4526m 
   28.00000m    1.7737p   60.3995f  571.4526m 
   29.00000m    1.8266p   62.1996f  571.4526m 
   30.00000m    1.8810p   64.0532f  571.4526m 
   31.00000m    1.9371p   65.9621f  571.4526m 
   32.00000m    1.9948p   67.9279f  571.4526m 
   33.00000m    2.0543p   69.9523f  571.4526m 
   34.00000m    2.1155p   72.0370f  571.4526m 
   35.00000m    2.1785p   74.1839f  571.4526m 
   36.00000m    2.2434p   76.3947f  571.4526m 
   37.00000m    2.3103p   78.6714f  571.4526m 
   38.00000m    2.3791p   81.0160f  571.4526m 
   39.00000m    2.4500p   83.4304f  571.4526m 
   40.00000m    2.5231p   85.9168f  571.4526m 
   41.00000m    2.5983p   88.4772f  571.4526m 
   42.00000m    2.6757p   91.1140f  571.4526m 
   43.00000m    2.7554p   93.8294f  571.4526m 
   44.00000m    2.8375p   96.6257f  571.4526m 
   45.00000m    2.9221p   99.5053f  571.4526m 
   46.00000m    3.0092p  102.4707f  571.4526m 
   47.00000m    3.0988p  105.5245f  571.4526m 
   48.00000m    3.1912p  108.6693f  571.4526m 
   49.00000m    3.2863p  111.9078f  571.4526m 
   50.00000m    3.3842p  115.2428f  571.4526m 
   51.00000m    3.4851p  118.6772f  571.4526m 
   52.00000m    3.5889p  122.2140f  571.4526m 
   53.00000m    3.6959p  125.8561f  571.4526m 
   54.00000m    3.8060p  129.6068f  571.4526m 
   55.00000m    3.9195p  133.4693f  571.4526m 
   56.00000m    4.0363p  137.4469f  571.4526m 
   57.00000m    4.1565p  141.5430f  571.4526m 
   58.00000m    4.2804p  145.7611f  571.4526m 
   59.00000m    4.4080p  150.1050f  571.4526m 
   60.00000m    4.5393p  154.5783f  571.4526m 
   61.00000m    4.6746p  159.1849f  571.4526m 
   62.00000m    4.8139p  163.9288f  571.4526m 
   63.00000m    4.9573p  168.8141f  571.4526m 
   64.00000m    5.1051p  173.8449f  571.4526m 
   65.00000m    5.2572p  179.0257f  571.4526m 
   66.00000m    5.4139p  184.3608f  571.4526m 
   67.00000m    5.5752p  189.8550f  571.4526m 
   68.00000m    5.7413p  195.5128f  571.4526m 
   69.00000m    5.9124p  201.3393f  571.4526m 
   70.00000m    6.0886p  207.3394f  571.4526m 
   71.00000m    6.2701p  213.5183f  571.4526m 
   72.00000m    6.4569p  219.8813f  571.4526m 
   73.00000m    6.6493p  226.4339f  571.4526m 
   74.00000m    6.8475p  233.1818f  571.4526m 
   75.00000m    7.0515p  240.1308f  571.4526m 
   76.00000m    7.2616p  247.2868f  571.4526m 
   77.00000m    7.4780p  254.6561f  571.4526m 
   78.00000m    7.7009p  262.2450f  571.4526m 
   79.00000m    7.9303p  270.0601f  571.4526m 
   80.00000m    8.1667p  278.1080f  571.4526m 
   81.00000m    8.4100p  286.3957f  571.4526m 
   82.00000m    8.6606p  294.9304f  571.4526m 
   83.00000m    8.9187p  303.7194f  571.4526m 
   84.00000m    9.1845p  312.7704f  571.4526m 
   85.00000m    9.4581p  322.0910f  571.4526m 
   86.00000m    9.7400p  331.6894f  571.4526m 
   87.00000m   10.0302p  341.5738f  571.4526m 
   88.00000m   10.3291p  351.7527f  571.4526m 
   89.00000m   10.6369p  362.2350f  571.4526m 
   90.00000m   10.9539p  373.0296f  571.4526m 
   91.00000m   11.2803p  384.1458f  571.4526m 
   92.00000m   11.6164p  395.5933f  571.4526m 
   93.00000m   11.9625p  407.3819f  571.4526m 
   94.00000m   12.3190p  419.5218f  571.4526m 
   95.00000m   12.6861p  432.0235f  571.4526m 
   96.00000m   13.0641p  444.8976f  571.4526m 
   97.00000m   13.4534p  458.1554f  571.4526m 
   98.00000m   13.8543p  471.8082f  571.4526m 
   99.00000m   14.2671p  485.8679f  571.4526m 
  100.00000m   14.6922p  500.3465f  571.4526m 
  101.00000m   15.1300p  515.2565f  571.4526m 
  102.00000m   15.5808p  530.6108f  571.4526m 
  103.00000m   16.0451p  546.4226f  571.4526m 
  104.00000m   16.5232p  562.7056f  571.4526m 
  105.00000m   17.0155p  579.4737f  571.4526m 
  106.00000m   17.5225p  596.7415f  571.4526m 
  107.00000m   18.0446p  614.5238f  571.4526m 
  108.00000m   18.5823p  632.8360f  571.4526m 
  109.00000m   19.1360p  651.6938f  571.4526m 
  110.00000m   19.7062p  671.1135f  571.4526m 
  111.00000m   20.2934p  691.1118f  571.4526m 
  112.00000m   20.8980p  711.7060f  571.4526m 
  113.00000m   21.5207p  732.9138f  571.4526m 
  114.00000m   22.1619p  754.7536f  571.4526m 
  115.00000m   22.8223p  777.2441f  571.4526m 
  116.00000m   23.5023p  800.4047f  571.4526m 
  117.00000m   24.2025p  824.2554f  571.4526m 
  118.00000m   24.9237p  848.8167f  571.4526m 
  119.00000m   25.6663p  874.1099f  571.4526m 
  120.00000m   26.4310p  900.1567f  571.4526m 
  121.00000m   27.2185p  926.9796f  571.4526m 
  122.00000m   28.0295p  954.6016f  571.4526m 
  123.00000m   28.8647p  983.0467f  571.4526m 
  124.00000m   29.7247p    1.0123p  571.4526m 
  125.00000m   30.6103p    1.0425p  571.4526m 
  126.00000m   31.5224p    1.0736p  571.4526m 
  127.00000m   32.4615p    1.1056p  571.4526m 
  128.00000m   33.4287p    1.1385p  571.4526m 
  129.00000m   34.4247p    1.1724p  571.4526m 
  130.00000m   35.4503p    1.2074p  571.4526m 
  131.00000m   36.5066p    1.2433p  571.4526m 
  132.00000m   37.5942p    1.2804p  571.4526m 
  133.00000m   38.7143p    1.3185p  571.4526m 
  134.00000m   39.8677p    1.3578p  571.4526m 
  135.00000m   41.0555p    1.3983p  571.4526m 
  136.00000m   42.2787p    1.4399p  571.4526m 
  137.00000m   43.5383p    1.4829p  571.4526m 
  138.00000m   44.8354p    1.5270p  571.4526m 
  139.00000m   46.1712p    1.5725p  571.4526m 
  140.00000m   47.5468p    1.6194p  571.4526m 
  141.00000m   48.9633p    1.6676p  571.4526m 
  142.00000m   50.4220p    1.7173p  571.4526m 
  143.00000m   51.9242p    1.7685p  571.4526m 
  144.00000m   53.4711p    1.8212p  571.4526m 
  145.00000m   55.0641p    1.8755p  571.4526m 
  146.00000m   56.7046p    1.9313p  571.4526m 
  147.00000m   58.3939p    1.9889p  571.4526m 
  148.00000m   60.1335p    2.0481p  571.4526m 
  149.00000m   61.9250p    2.1092p  571.4526m 
  150.00000m   63.7698p    2.1720p  571.4526m 
  151.00000m   65.6695p    2.2367p  571.4526m 
  152.00000m   67.6259p    2.3034p  571.4526m 
  153.00000m   69.6404p    2.3720p  571.4526m 
  154.00000m   71.7150p    2.4427p  571.4526m 
  155.00000m   73.8514p    2.5154p  571.4526m 
  156.00000m   76.0514p    2.5904p  571.4526m 
  157.00000m   78.3170p    2.6676p  571.4526m 
  158.00000m   80.6500p    2.7471p  571.4526m 
  159.00000m   83.0525p    2.8289p  571.4526m 
  160.00000m   85.5265p    2.9132p  571.4526m 
  161.00000m   88.0742p    3.0000p  571.4526m 
  162.00000m   90.6978p    3.0894p  571.4526m 
  163.00000m   93.3996p    3.1814p  571.4526m 
  164.00000m   96.1818p    3.2762p  571.4526m 
  165.00000m   99.0468p    3.3738p  571.4526m 
  166.00000m  101.9972p    3.4743p  571.4526m 
  167.00000m  105.0354p    3.5778p  571.4526m 
  168.00000m  108.1641p    3.6844p  571.4526m 
  169.00000m  111.3860p    3.7942p  571.4526m 
  170.00000m  114.7038p    3.9072p  571.4526m 
  171.00000m  118.1204p    4.0236p  571.4526m 
  172.00000m  121.6387p    4.1435p  571.4526m 
  173.00000m  125.2618p    4.2669p  571.4526m 
  174.00000m  128.9928p    4.3940p  571.4526m 
  175.00000m  132.8349p    4.5249p  571.4526m 
  176.00000m  136.7914p    4.6597p  571.4526m 
  177.00000m  140.8657p    4.7986p  571.4526m 
  178.00000m  145.0613p    4.9415p  571.4526m 
  179.00000m  149.3819p    5.0887p  571.4526m 
  180.00000m  153.8310p    5.2403p  571.4526m 
  181.00000m  158.4127p    5.3964p  571.4526m 
  182.00000m  163.1308p    5.5572p  571.4526m 
  183.00000m  167.9893p    5.7227p  571.4526m 
  184.00000m  172.9925p    5.8932p  571.4526m 
  185.00000m  178.1446p    6.0688p  571.4526m 
  186.00000m  183.4501p    6.2496p  571.4526m 
  187.00000m  188.9136p    6.4357p  571.4526m 
  188.00000m  194.5397p    6.6274p  571.4526m 
  189.00000m  200.3334p    6.8249p  571.4526m 
  190.00000m  206.2995p    7.0282p  571.4526m 
  191.00000m  212.4432p    7.2375p  571.4526m 
  192.00000m  218.7698p    7.4531p  571.4526m 
  193.00000m  225.2847p    7.6751p  571.4526m 
  194.00000m  231.9935p    7.9038p  571.4526m 
  195.00000m  238.9021p    8.1392p  571.4526m 
  196.00000m  246.0163p    8.3816p  571.4526m 
  197.00000m  253.3423p    8.6313p  571.4526m 
  198.00000m  260.8863p    8.8884p  571.4526m 
  199.00000m  268.6549p    9.1531p  571.4526m 
  200.00000m  276.6547p    9.4258p  571.4526m 
  201.00000m  284.8926p    9.7065p  571.4526m 
  202.00000m  293.3757p    9.9956p  571.4526m 
  203.00000m  302.1113p   10.2934p  571.4526m 
  204.00000m  311.1069p   10.5999p  571.4526m 
  205.00000m  320.3702p   10.9157p  571.4526m 
  206.00000m  329.9092p   11.2408p  571.4526m 
  207.00000m  339.7320p   11.5756p  571.4526m 
  208.00000m  349.8472p   11.9203p  571.4526m 
  209.00000m  360.2634p   12.2754p  571.4526m 
  210.00000m  370.9896p   12.6410p  571.4526m 
  211.00000m  382.0349p   13.0175p  571.4526m 
  212.00000m  393.4090p   13.4051p  571.4526m 
  213.00000m  405.1214p   13.8044p  571.4526m 
  214.00000m  417.1824p   14.2155p  571.4526m 
  215.00000m  429.6023p   14.6389p  571.4526m 
  216.00000m  442.3917p   15.0748p  571.4526m 
  217.00000m  455.5617p   15.5238p  571.4526m 
  218.00000m  469.1234p   15.9861p  571.4526m 
  219.00000m  483.0887p   16.4622p  571.4526m 
  220.00000m  497.4694p   16.9524p  571.4526m 
  221.00000m  512.2780p   17.4572p  571.4526m 
  222.00000m  527.5272p   17.9771p  571.4526m 
  223.00000m  543.2299p   18.5124p  571.4526m 
  224.00000m  559.3999p   19.0637p  571.4526m 
  225.00000m  576.0508p   19.6314p  571.4526m 
  226.00000m  593.1970p   20.2160p  571.4526m 
  227.00000m  610.8532p   20.8180p  571.4526m 
  228.00000m  629.0346p   21.4379p  571.4526m 
  229.00000m  647.7569p   22.0762p  571.4526m 
  230.00000m  667.0359p   22.7336p  571.4526m 
  231.00000m  686.8884p   23.4105p  571.4526m 
  232.00000m  707.3313p   24.1075p  571.4526m 
  233.00000m  728.3821p   24.8254p  571.4526m 
  234.00000m  750.0590p   25.5645p  571.4526m 
  235.00000m  772.3806p   26.3257p  571.4526m 
  236.00000m  795.3659p   27.1095p  571.4526m 
  237.00000m  819.0347p   27.9166p  571.4526m 
  238.00000m  843.4074p   28.7478p  571.4526m 
  239.00000m  868.5047p   29.6037p  571.4526m 
  240.00000m  894.3483p   30.4851p  571.4526m 
  241.00000m  920.9602p   31.3927p  571.4526m 
  242.00000m  948.3634p   32.3272p  571.4526m 
  243.00000m  976.5812p   33.2896p  571.4526m 
  244.00000m    1.0056n   34.2807p  571.4526m 
  245.00000m    1.0356n   35.3012p  571.4526m 
  246.00000m    1.0664n   36.3521p  571.4526m 
  247.00000m    1.0981n   37.4343p  571.4526m 
  248.00000m    1.1308n   38.5486p  571.4526m 
  249.00000m    1.1644n   39.6961p  571.4526m 
  250.00000m    1.1990n   40.8777p  571.4526m 
  251.00000m    1.2347n   42.0945p  571.4526m 
  252.00000m    1.2714n   43.3475p  571.4526m 
  253.00000m    1.3093n   44.6378p  571.4526m 
  254.00000m    1.3482n   45.9664p  571.4526m 
  255.00000m    1.3883n   47.3346p  571.4526m 
  256.00000m    1.4296n   48.7434p  571.4526m 
  257.00000m    1.4721n   50.1942p  571.4526m 
  258.00000m    1.5159n   51.6881p  571.4526m 
  259.00000m    1.5610n   53.2265p  571.4526m 
  260.00000m    1.6074n   54.8105p  571.4526m 
  261.00000m    1.6552n   56.4417p  571.4526m 
  262.00000m    1.7044n   58.1215p  571.4526m 
  263.00000m    1.7551n   59.8511p  571.4526m 
  264.00000m    1.8073n   61.6322p  571.4526m 
  265.00000m    1.8611n   63.4663p  571.4526m 
  266.00000m    1.9164n   65.3549p  571.4526m 
  267.00000m    1.9734n   67.2996p  571.4526m 
  268.00000m    2.0321n   69.3022p  571.4526m 
  269.00000m    2.0925n   71.3643p  571.4526m 
  270.00000m    2.1547n   73.4878p  571.4526m 
  271.00000m    2.2187n   75.6743p  571.4526m 
  272.00000m    2.2847n   77.9259p  571.4526m 
  273.00000m    2.3526n   80.2444p  571.4526m 
  274.00000m    2.4226n   82.6318p  571.4526m 
  275.00000m    2.4946n   85.0902p  571.4526m 
  276.00000m    2.5687n   87.6216p  571.4526m 
  277.00000m    2.6451n   90.2283p  571.4526m 
  278.00000m    2.7237n   92.9125p  571.4526m 
  279.00000m    2.8046n   95.6765p  571.4526m 
  280.00000m    2.8880n   98.5226p  571.4526m 
  281.00000m    2.9738n  101.4532p  571.4526m 
  282.00000m    3.0622n  104.4710p  571.4526m 
  283.00000m    3.1532n  107.5785p  571.4526m 
  284.00000m    3.2469n  110.7782p  571.4526m 
  285.00000m    3.3433n  114.0731p  571.4526m 
  286.00000m    3.4427n  117.4658p  571.4526m 
  287.00000m    3.5449n  120.9594p  571.4526m 
  288.00000m    3.6503n  124.5567p  571.4526m 
  289.00000m    3.7587n  128.2609p  571.4526m 
  290.00000m    3.8703n  132.0752p  571.4526m 
  291.00000m    3.9853n  136.0027p  571.4526m 
  292.00000m    4.1037n  140.0470p  571.4526m 
  293.00000m    4.2256n  144.2113p  571.4526m 
  294.00000m    4.3511n  148.4993p  571.4526m 
  295.00000m    4.4803n  152.9147p  571.4526m 
  296.00000m    4.6133n  157.4612p  571.4526m 
  297.00000m    4.7503n  162.1427p  571.4526m 
  298.00000m    4.8914n  166.9632p  571.4526m 
  299.00000m    5.0366n  171.9269p  571.4526m 
  300.00000m    5.1862n  177.0379p  571.4526m 
  301.00000m    5.3401n  182.3007p  571.4526m 
  302.00000m    5.4987n  187.7197p  571.4526m 
  303.00000m    5.6619n  193.2996p  571.4526m 
  304.00000m    5.8300n  199.0451p  571.4526m 
  305.00000m    6.0030n  204.9611p  571.4526m 
  306.00000m    6.1812n  211.0528p  571.4526m 
  307.00000m    6.3646n  217.3252p  571.4526m 
  308.00000m    6.5535n  223.7838p  571.4526m 
  309.00000m    6.7480n  230.4341p  571.4526m 
  310.00000m    6.9482n  237.2817p  571.4526m 
  311.00000m    7.1544n  244.3325p  571.4526m 
  312.00000m    7.3666n  251.5924p  571.4526m 
  313.00000m    7.5852n  259.0678p  571.4526m 
  314.00000m    7.8102n  266.7649p  571.4526m 
  315.00000m    8.0418n  274.6903p  571.4526m 
  316.00000m    8.2804n  282.8509p  571.4526m 
  317.00000m    8.5259n  291.2534p  571.4526m 
  318.00000m    8.7788n  299.9052p  571.4526m 
  319.00000m    9.0391n  308.8135p  571.4526m 
  320.00000m    9.3072n  317.9860p  571.4526m 
  321.00000m    9.5831n  327.4305p  571.4526m 
  322.00000m    9.8672n  337.1549p  571.4526m 
  323.00000m   10.1597n  347.1677p  571.4526m 
  324.00000m   10.4609n  357.4773p  571.4526m 
  325.00000m   10.7710n  368.0925p  571.4526m 
  326.00000m   11.0902n  379.0223p  571.4526m 
  327.00000m   11.4189n  390.2760p  571.4526m 
  328.00000m   11.7572n  401.8633p  571.4526m 
  329.00000m   12.1056n  413.7939p  571.4526m 
  330.00000m   12.4643n  426.0780p  571.4526m 
  331.00000m   12.8336n  438.7260p  571.4526m 
  332.00000m   13.2137n  451.7487p  571.4526m 
  333.00000m   13.6051n  465.1572p  571.4526m 
  334.00000m   14.0081n  478.9628p  571.4526m 
  335.00000m   14.4229n  493.1773p  571.4526m 
  336.00000m   14.8500n  507.8128p  571.4526m 
  337.00000m   15.2897n  522.8816p  571.4526m 
  338.00000m   15.7424n  538.3966p  571.4526m 
  339.00000m   16.2084n  554.3709p  571.4526m 
  340.00000m   16.6882n  570.8180p  571.4526m 
  341.00000m   17.1822n  587.7520p  571.4526m 
  342.00000m   17.6907n  605.1872p  571.4526m 
  343.00000m   18.2142n  623.1384p  571.4526m 
  344.00000m   18.7531n  641.6207p  571.4526m 
  345.00000m   19.3079n  660.6499p  571.4526m 
  346.00000m   19.8791n  680.2421p  571.4526m 
  347.00000m   20.4671n  700.4138p  571.4526m 
  348.00000m   21.0725n  721.1821p  571.4526m 
  349.00000m   21.6956n  742.5646p  571.4526m 
  350.00000m   22.3372n  764.5795p  571.4526m 
  351.00000m   22.9976n  787.2452p  571.4526m 
  352.00000m   23.6774n  810.5811p  571.4526m 
  353.00000m   24.3773n  834.6068p  571.4526m 
  354.00000m   25.0978n  859.3426p  571.4526m 
  355.00000m   25.8395n  884.8095p  571.4526m 
  356.00000m   26.6030n  911.0289p  571.4526m 
  357.00000m   27.3890n  938.0230p  571.4526m 
  358.00000m   28.1981n  965.8145p  571.4526m 
  359.00000m   29.0309n  994.4270p  571.4526m 
  360.00000m   29.8883n    1.0239n  571.4526m 
  361.00000m   30.7709n    1.0542n  571.4526m 
  362.00000m   31.6794n    1.0854n  571.4526m 
  363.00000m   32.6146n    1.1176n  571.4526m 
  364.00000m   33.5773n    1.1507n  571.4526m 
  365.00000m   34.5682n    1.1847n  571.4526m 
  366.00000m   35.5883n    1.2198n  571.4526m 
  367.00000m   36.6383n    1.2559n  571.4526m 
  368.00000m   37.7191n    1.2931n  571.4526m 
  369.00000m   38.8317n    1.3314n  571.4526m 
  370.00000m   39.9768n    1.3708n  571.4526m 
  371.00000m   41.1556n    1.4113n  571.4526m 
  372.00000m   42.3690n    1.4531n  571.4526m 
  373.00000m   43.6179n    1.4961n  571.4526m 
  374.00000m   44.9034n    1.5404n  571.4526m 
  375.00000m   46.2266n    1.5859n  571.4526m 
  376.00000m   47.5886n    1.6328n  571.4526m 
  377.00000m   48.9904n    1.6811n  571.4526m 
  378.00000m   50.4333n    1.7308n  571.4526m 
  379.00000m   51.9185n    1.7820n  571.4526m 
  380.00000m   53.4471n    1.8347n  571.4526m 
  381.00000m   55.0204n    1.8889n  571.4526m 
  382.00000m   56.6398n    1.9447n  571.4526m 
  383.00000m   58.3065n    2.0022n  571.4526m 
  384.00000m   60.0220n    2.0613n  571.4526m 
  385.00000m   61.7876n    2.1222n  571.4526m 
  386.00000m   63.6047n    2.1849n  571.4526m 
  387.00000m   65.4750n    2.2495n  571.4526m 
  388.00000m   67.3999n    2.3159n  571.4526m 
  389.00000m   69.3810n    2.3843n  571.4526m 
  390.00000m   71.4199n    2.4547n  571.4526m 
  391.00000m   73.5183n    2.5272n  571.4526m 
  392.00000m   75.6778n    2.6017n  571.4526m 
