 ****** HSPICE -- O-2018.09-SP2 win64 (Feb 25 2019) ******                      
  Copyright (c) 1986 - 2021 by Synopsys, Inc. All Rights Reserved.              
  This software and the associated documentation are proprietary
  to Synopsys, Inc. This software may only be used in accordance
  with the terms and conditions of a written license agreement with
  Synopsys, Inc. All other use, reproduction, or distribution of
  this software is strictly prohibited.
  Input File: mirror.sp                                                         
  Command line options: C:\synopsys\Hspice_O-2018.09-SP2\WIN64\hspice.com -i mirror.sp -o C:\mdsy\proj2\mirror.lis
  Start time: Sun Dec  5 23:05:57 2021
  lic:  
  lic: FLEXlm: SDK_11.7.3 
  lic: USER:   admin                HOSTNAME: DESKTOP-3KO7170 
  lic: HOSTID: "d83bbfb49802"       PID:      2264 
  lic: Using FLEXlm license file: 
  lic: 27000@DESKTOP-3KO7170 
  lic: Checkout 1 hspice 
  lic: License/Maintenance for hspice will expire on 30-dec-2029/2019.2019 
  lic: 1(in_use)/99(total) FLOATING license(s) on SERVER 27000@DESKTOP-3KO7170 
  lic:   
 

  
      

Element variations(Local):   element              parameter
 **info** set option symb=1 internally to help for convergence.
 *****************************************************************
 ******  option summary
 ******
 runlvl  = 3         bypass  = 2.0000    
 ******
 

 ****** dc transfer curves tnom=  25.000 temp=  25.000 ******
x

 volt         param      param      param       param     
             idsn       vthn       idsp        vthp       
    0.          0.       483.4310m  393.8083u   458.3929m 
    1.00000m  533.3205f  483.4308m  393.3389u   458.3931m 
    2.00000m    1.0877p  483.4306m  392.8695u   458.3933m 
    3.00000m    1.6636p  483.4303m  392.4004u   458.3935m 
    4.00000m    2.2615p  483.4301m  391.9313u   458.3937m 
    5.00000m    2.8819p  483.4299m  391.4624u   458.3939m 
    6.00000m    3.5252p  483.4297m  390.9937u   458.3941m 
    7.00000m    4.1919p  483.4294m  390.5250u   458.3943m 
    8.00000m    4.8826p  483.4292m  390.0566u   458.3945m 
    9.00000m    5.5976p  483.4290m  389.5882u   458.3948m 
   10.00000m    6.3376p  483.4287m  389.1200u   458.3950m 
   11.00000m    7.1030p  483.4285m  388.6520u   458.3952m 
   12.00000m    7.8943p  483.4283m  388.1841u   458.3954m 
   13.00000m    8.7120p  483.4280m  387.7163u   458.3956m 
   14.00000m    9.5567p  483.4278m  387.2487u   458.3958m 
   15.00000m   10.4288p  483.4276m  386.7812u   458.3960m 
   16.00000m   11.3290p  483.4274m  386.3138u   458.3962m 
   17.00000m   12.2578p  483.4271m  385.8466u   458.3964m 
   18.00000m   13.2158p  483.4269m  385.3795u   458.3966m 
   19.00000m   14.2034p  483.4267m  384.9126u   458.3968m 
   20.00000m   15.2214p  483.4264m  384.4459u   458.3970m 
   21.00000m   16.2703p  483.4262m  383.9792u   458.3973m 
   22.00000m   17.3508p  483.4260m  383.5127u   458.3975m 
   23.00000m   18.4635p  483.4257m  383.0464u   458.3977m 
   24.00000m   19.6091p  483.4255m  382.5802u   458.3979m 
   25.00000m   20.7883p  483.4253m  382.1141u   458.3981m 
   26.00000m   22.0018p  483.4250m  381.6482u   458.3983m 
   27.00000m   23.2503p  483.4248m  381.1824u   458.3985m 
   28.00000m   24.5347p  483.4246m  380.7168u   458.3987m 
   29.00000m   25.8557p  483.4244m  380.2513u   458.3989m 
   30.00000m   27.2143p  483.4241m  379.7860u   458.3991m 
   31.00000m   28.6112p  483.4239m  379.3208u   458.3993m 
   32.00000m   30.0475p  483.4237m  378.8558u   458.3996m 
   33.00000m   31.5241p  483.4234m  378.3909u   458.3998m 
   34.00000m   33.0420p  483.4232m  377.9261u   458.4000m 
   35.00000m   34.6024p  483.4230m  377.4615u   458.4002m 
   36.00000m   36.2062p  483.4227m  376.9970u   458.4004m 
   37.00000m   37.8547p  483.4225m  376.5327u   458.4006m 
   38.00000m   39.5492p  483.4223m  376.0686u   458.4008m 
   39.00000m   41.2909p  483.4220m  375.6045u   458.4010m 
   40.00000m   43.0812p  483.4218m  375.1407u   458.4012m 
   41.00000m   44.9214p  483.4216m  374.6769u   458.4014m 
   42.00000m   46.8131p  483.4214m  374.2134u   458.4016m 
   43.00000m   48.7578p  483.4211m  373.7499u   458.4018m 
   44.00000m   50.7570p  483.4209m  373.2866u   458.4021m 
   45.00000m   52.8126p  483.4207m  372.8235u   458.4023m 
   46.00000m   54.9263p  483.4204m  372.3605u   458.4025m 
   47.00000m   57.0997p  483.4202m  371.8977u   458.4027m 
   48.00000m   59.3350p  483.4200m  371.4350u   458.4029m 
   49.00000m   61.6340p  483.4197m  370.9725u   458.4031m 
   50.00000m   63.9988p  483.4195m  370.5101u   458.4033m 
   51.00000m   66.4316p  483.4193m  370.0478u   458.4035m 
   52.00000m   68.9345p  483.4191m  369.5858u   458.4037m 
   53.00000m   71.5098p  483.4188m  369.1238u   458.4039m 
   54.00000m   74.1600p  483.4186m  368.6620u   458.4041m 
   55.00000m   76.8874p  483.4184m  368.2004u   458.4044m 
   56.00000m   79.6947p  483.4181m  367.7389u   458.4046m 
   57.00000m   82.5845p  483.4179m  367.2776u   458.4048m 
   58.00000m   85.5595p  483.4177m  366.8164u   458.4050m 
   59.00000m   88.6225p  483.4174m  366.3554u   458.4052m 
   60.00000m   91.7764p  483.4172m  365.8945u   458.4054m 
   61.00000m   95.0244p  483.4170m  365.4338u   458.4056m 
   62.00000m   98.3694p  483.4167m  364.9732u   458.4058m 
   63.00000m  101.8146p  483.4165m  364.5128u   458.4060m 
   64.00000m  105.3635p  483.4163m  364.0525u   458.4062m 
   65.00000m  109.0194p  483.4161m  363.5924u   458.4064m 
   66.00000m  112.7858p  483.4158m  363.1324u   458.4067m 
   67.00000m  116.6663p  483.4156m  362.6726u   458.4069m 
   68.00000m  120.6648p  483.4154m  362.2129u   458.4071m 
   69.00000m  124.7850p  483.4151m  361.7534u   458.4073m 
   70.00000m  129.0310p  483.4149m  361.2941u   458.4075m 
   71.00000m  133.4069p  483.4147m  360.8349u   458.4077m 
   72.00000m  137.9169p  483.4144m  360.3758u   458.4079m 
   73.00000m  142.5653p  483.4142m  359.9170u   458.4081m 
   74.00000m  147.3566p  483.4140m  359.4582u   458.4083m 
   75.00000m  152.2956p  483.4137m  358.9997u   458.4085m 
   76.00000m  157.3868p  483.4135m  358.5412u   458.4087m 
   77.00000m  162.6354p  483.4133m  358.0830u   458.4090m 
   78.00000m  168.0463p  483.4131m  357.6249u   458.4092m 
   79.00000m  173.6248p  483.4128m  357.1669u   458.4094m 
   80.00000m  179.3762p  483.4126m  356.7091u   458.4096m 
   81.00000m  185.3061p  483.4124m  356.2515u   458.4098m 
   82.00000m  191.4203p  483.4121m  355.7940u   458.4100m 
   83.00000m  197.7245p  483.4119m  355.3367u   458.4102m 
   84.00000m  204.2249p  483.4117m  354.8795u   458.4104m 
   85.00000m  210.9278p  483.4114m  354.4225u   458.4106m 
   86.00000m  217.8395p  483.4112m  353.9656u   458.4108m 
   87.00000m  224.9667p  483.4110m  353.5089u   458.4110m 
   88.00000m  232.3163p  483.4108m  353.0524u   458.4113m 
   89.00000m  239.8954p  483.4105m  352.5960u   458.4115m 
   90.00000m  247.7111p  483.4103m  352.1398u   458.4117m 
   91.00000m  255.7710p  483.4101m  351.6837u   458.4119m 
   92.00000m  264.0828p  483.4098m  351.2278u   458.4121m 
   93.00000m  272.6545p  483.4096m  350.7721u   458.4123m 
   94.00000m  281.4942p  483.4094m  350.3165u   458.4125m 
   95.00000m  290.6105p  483.4091m  349.8611u   458.4127m 
   96.00000m  300.0119p  483.4089m  349.4058u   458.4129m 
   97.00000m  309.7076p  483.4087m  348.9507u   458.4131m 
   98.00000m  319.7067p  483.4084m  348.4957u   458.4133m 
   99.00000m  330.0188p  483.4082m  348.0409u   458.4136m 
  100.00000m  340.6537p  483.4080m  347.5863u   458.4138m 
  101.00000m  351.6216p  483.4078m  347.1319u   458.4140m 
  102.00000m  362.9328p  483.4075m  346.6776u   458.4142m 
  103.00000m  374.5981p  483.4073m  346.2234u   458.4144m 
  104.00000m  386.6286p  483.4071m  345.7694u   458.4146m 
  105.00000m  399.0357p  483.4068m  345.3156u   458.4148m 
  106.00000m  411.8311p  483.4066m  344.8620u   458.4150m 
  107.00000m  425.0271p  483.4064m  344.4085u   458.4152m 
  108.00000m  438.6361p  483.4061m  343.9551u   458.4154m 
  109.00000m  452.6710p  483.4059m  343.5020u   458.4156m 
  110.00000m  467.1450p  483.4057m  343.0490u   458.4159m 
  111.00000m  482.0718p  483.4054m  342.5961u   458.4161m 
  112.00000m  497.4655p  483.4052m  342.1435u   458.4163m 
  113.00000m  513.3407p  483.4050m  341.6909u   458.4165m 
  114.00000m  529.7122p  483.4048m  341.2386u   458.4167m 
  115.00000m  546.5955p  483.4045m  340.7864u   458.4169m 
  116.00000m  564.0065p  483.4043m  340.3344u   458.4171m 
  117.00000m  581.9616p  483.4041m  339.8825u   458.4173m 
  118.00000m  600.4775p  483.4038m  339.4308u   458.4175m 
  119.00000m  619.5717p  483.4036m  338.9793u   458.4177m 
  120.00000m  639.2622p  483.4034m  338.5280u   458.4179m 
  121.00000m  659.5672p  483.4031m  338.0768u   458.4182m 
  122.00000m  680.5059p  483.4029m  337.6257u   458.4184m 
  123.00000m  702.0977p  483.4027m  337.1749u   458.4186m 
  124.00000m  724.3629p  483.4025m  336.7242u   458.4188m 
  125.00000m  747.3223p  483.4022m  336.2737u   458.4190m 
  126.00000m  770.9972p  483.4020m  335.8233u   458.4192m 
  127.00000m  795.4097p  483.4018m  335.3731u   458.4194m 
  128.00000m  820.5825p  483.4015m  334.9231u   458.4196m 
  129.00000m  846.5391p  483.4013m  334.4732u   458.4198m 
  130.00000m  873.3034p  483.4011m  334.0235u   458.4200m 
  131.00000m  900.9004p  483.4008m  333.5740u   458.4203m 
  132.00000m  929.3555p  483.4006m  333.1246u   458.4205m 
  133.00000m  958.6953p  483.4004m  332.6755u   458.4207m 
  134.00000m  988.9467p  483.4001m  332.2264u   458.4209m 
  135.00000m    1.0201n  483.3999m  331.7776u   458.4211m 
  136.00000m    1.0523n  483.3997m  331.3289u   458.4213m 
  137.00000m    1.0855n  483.3995m  330.8804u   458.4215m 
  138.00000m    1.1196n  483.3992m  330.4321u   458.4217m 
  139.00000m    1.1549n  483.3990m  329.9839u   458.4219m 
  140.00000m    1.1912n  483.3988m  329.5359u   458.4221m 
  141.00000m    1.2287n  483.3985m  329.0881u   458.4223m 
  142.00000m    1.2673n  483.3983m  328.6404u   458.4226m 
  143.00000m    1.3071n  483.3981m  328.1929u   458.4228m 
  144.00000m    1.3482n  483.3978m  327.7456u   458.4230m 
  145.00000m    1.3905n  483.3976m  327.2985u   458.4232m 
  146.00000m    1.4341n  483.3974m  326.8515u   458.4234m 
  147.00000m    1.4791n  483.3972m  326.4047u   458.4236m 
  148.00000m    1.5255n  483.3969m  325.9581u   458.4238m 
  149.00000m    1.5733n  483.3967m  325.5116u   458.4240m 
  150.00000m    1.6225n  483.3965m  325.0653u   458.4242m 
  151.00000m    1.6733n  483.3962m  324.6192u   458.4244m 
  152.00000m    1.7257n  483.3960m  324.1733u   458.4247m 
  153.00000m    1.7796n  483.3958m  323.7275u   458.4249m 
  154.00000m    1.8353n  483.3955m  323.2819u   458.4251m 
  155.00000m    1.8926n  483.3953m  322.8365u   458.4253m 
  156.00000m    1.9517n  483.3951m  322.3912u   458.4255m 
  157.00000m    2.0126n  483.3948m  321.9462u   458.4257m 
  158.00000m    2.0754n  483.3946m  321.5013u   458.4259m 
  159.00000m    2.1401n  483.3944m  321.0566u   458.4261m 
  160.00000m    2.2068n  483.3942m  320.6120u   458.4263m 
  161.00000m    2.2755n  483.3939m  320.1676u   458.4265m 
  162.00000m    2.3464n  483.3937m  319.7234u   458.4267m 
  163.00000m    2.4194n  483.3935m  319.2794u   458.4270m 
  164.00000m    2.4946n  483.3932m  318.8356u   458.4272m 
  165.00000m    2.5722n  483.3930m  318.3919u   458.4274m 
  166.00000m    2.6521n  483.3928m  317.9484u   458.4276m 
  167.00000m    2.7344n  483.3925m  317.5051u   458.4278m 
  168.00000m    2.8193n  483.3923m  317.0620u   458.4280m 
  169.00000m    2.9068n  483.3921m  316.6190u   458.4282m 
  170.00000m    2.9969n  483.3918m  316.1762u   458.4284m 
  171.00000m    3.0897n  483.3916m  315.7336u   458.4286m 
  172.00000m    3.1854n  483.3914m  315.2912u   458.4288m 
  173.00000m    3.2840n  483.3912m  314.8489u   458.4291m 
  174.00000m    3.3856n  483.3909m  314.4069u   458.4293m 
  175.00000m    3.4902n  483.3907m  313.9650u   458.4295m 
  176.00000m    3.5981n  483.3905m  313.5233u   458.4297m 
  177.00000m    3.7092n  483.3902m  313.0817u   458.4299m 
  178.00000m    3.8237n  483.3900m  312.6404u   458.4301m 
  179.00000m    3.9416n  483.3898m  312.1992u   458.4303m 
  180.00000m    4.0631n  483.3895m  311.7582u   458.4305m 
  181.00000m    4.1883n  483.3893m  311.3174u   458.4307m 
  182.00000m    4.3172n  483.3891m  310.8768u   458.4309m 
  183.00000m    4.4500n  483.3889m  310.4363u   458.4312m 
  184.00000m    4.5869n  483.3886m  309.9960u   458.4314m 
  185.00000m    4.7278n  483.3884m  309.5559u   458.4316m 
  186.00000m    4.8730n  483.3882m  309.1160u   458.4318m 
  187.00000m    5.0226n  483.3879m  308.6763u   458.4320m 
  188.00000m    5.1766n  483.3877m  308.2368u   458.4322m 
  189.00000m    5.3353n  483.3875m  307.7974u   458.4324m 
  190.00000m    5.4987n  483.3872m  307.3582u   458.4326m 
  191.00000m    5.6670n  483.3870m  306.9192u   458.4328m 
  192.00000m    5.8404n  483.3868m  306.4804u   458.4330m 
  193.00000m    6.0189n  483.3865m  306.0418u   458.4333m 
  194.00000m    6.2028n  483.3863m  305.6033u   458.4335m 
  195.00000m    6.3921n  483.3861m  305.1650u   458.4337m 
  196.00000m    6.5871n  483.3859m  304.7270u   458.4339m 
  197.00000m    6.7879n  483.3856m  304.2891u   458.4341m 
  198.00000m    6.9946n  483.3854m  303.8513u   458.4343m 
  199.00000m    7.2075n  483.3852m  303.4138u   458.4345m 
  200.00000m    7.4268n  483.3849m  302.9765u   458.4347m 
  201.00000m    7.6525n  483.3847m  302.5393u   458.4349m 
  202.00000m    7.8849n  483.3845m  302.1023u   458.4351m 
  203.00000m    8.1242n  483.3842m  301.6655u   458.4354m 
  204.00000m    8.3705n  483.3840m  301.2289u   458.4356m 
  205.00000m    8.6241n  483.3838m  300.7925u   458.4358m 
  206.00000m    8.8852n  483.3836m  300.3563u   458.4360m 
  207.00000m    9.1540n  483.3833m  299.9202u   458.4362m 
  208.00000m    9.4307n  483.3831m  299.4844u   458.4364m 
  209.00000m    9.7155n  483.3829m  299.0487u   458.4366m 
  210.00000m   10.0087n  483.3826m  298.6132u   458.4368m 
  211.00000m   10.3105n  483.3824m  298.1779u   458.4370m 
  212.00000m   10.6211n  483.3822m  297.7428u   458.4372m 
  213.00000m   10.9408n  483.3819m  297.3079u   458.4375m 
  214.00000m   11.2699n  483.3817m  296.8732u   458.4377m 
  215.00000m   11.6085n  483.3815m  296.4386u   458.4379m 
  216.00000m   11.9570n  483.3812m  296.0043u   458.4381m 
  217.00000m   12.3156n  483.3810m  295.5701u   458.4383m 
  218.00000m   12.6847n  483.3808m  295.1361u   458.4385m 
  219.00000m   13.0645n  483.3806m  294.7023u   458.4387m 
  220.00000m   13.4553n  483.3803m  294.2687u   458.4389m 
  221.00000m   13.8574n  483.3801m  293.8353u   458.4391m 
  222.00000m   14.2711n  483.3799m  293.4021u   458.4393m 
  223.00000m   14.6967n  483.3796m  292.9691u   458.4396m 
  224.00000m   15.1347n  483.3794m  292.5362u   458.4398m 
  225.00000m   15.5852n  483.3792m  292.1036u   458.4400m 
  226.00000m   16.0487n  483.3789m  291.6712u   458.4402m 
  227.00000m   16.5255n  483.3787m  291.2389u   458.4404m 
  228.00000m   17.0160n  483.3785m  290.8068u   458.4406m 
  229.00000m   17.5205n  483.3782m  290.3749u   458.4408m 
  230.00000m   18.0394n  483.3780m  289.9433u   458.4410m 
  231.00000m   18.5732n  483.3778m  289.5118u   458.4412m 
  232.00000m   19.1221n  483.3776m  289.0805u   458.4414m 
  233.00000m   19.6867n  483.3773m  288.6494u   458.4417m 
  234.00000m   20.2674n  483.3771m  288.2184u   458.4419m 
  235.00000m   20.8645n  483.3769m  287.7877u   458.4421m 
  236.00000m   21.4785n  483.3766m  287.3572u   458.4423m 
  237.00000m   22.1099n  483.3764m  286.9269u   458.4425m 
  238.00000m   22.7591n  483.3762m  286.4967u   458.4427m 
  239.00000m   23.4266n  483.3759m  286.0668u   458.4429m 
  240.00000m   24.1129n  483.3757m  285.6370u   458.4431m 
  241.00000m   24.8185n  483.3755m  285.2075u   458.4433m 
  242.00000m   25.5439n  483.3753m  284.7781u   458.4436m 
  243.00000m   26.2896n  483.3750m  284.3490u   458.4438m 
  244.00000m   27.0561n  483.3748m  283.9200u   458.4440m 
  245.00000m   27.8441n  483.3746m  283.4912u   458.4442m 
  246.00000m   28.6540n  483.3743m  283.0627u   458.4444m 
  247.00000m   29.4865n  483.3741m  282.6343u   458.4446m 
  248.00000m   30.3420n  483.3739m  282.2061u   458.4448m 
  249.00000m   31.2213n  483.3736m  281.7781u   458.4450m 
  250.00000m   32.1249n  483.3734m  281.3503u   458.4452m 
  251.00000m   33.0535n  483.3732m  280.9228u   458.4454m 
  252.00000m   34.0077n  483.3729m  280.4954u   458.4457m 
  253.00000m   34.9882n  483.3727m  280.0682u   458.4459m 
  254.00000m   35.9956n  483.3725m  279.6412u   458.4461m 
  255.00000m   37.0306n  483.3723m  279.2144u   458.4463m 
  256.00000m   38.0940n  483.3720m  278.7878u   458.4465m 
  257.00000m   39.1864n  483.3718m  278.3614u   458.4467m 
  258.00000m   40.3086n  483.3716m  277.9352u   458.4469m 
  259.00000m   41.4614n  483.3713m  277.5092u   458.4471m 
  260.00000m   42.6454n  483.3711m  277.0834u   458.4473m 
  261.00000m   43.8616n  483.3709m  276.6578u   458.4476m 
  262.00000m   45.1107n  483.3706m  276.2324u   458.4478m 
  263.00000m   46.3935n  483.3704m  275.8072u   458.4480m 
  264.00000m   47.7110n  483.3702m  275.3823u   458.4482m 
  265.00000m   49.0638n  483.3700m  274.9575u   458.4484m 
  266.00000m   50.4530n  483.3697m  274.5329u   458.4486m 
  267.00000m   51.8794n  483.3695m  274.1085u   458.4488m 
  268.00000m   53.3439n  483.3693m  273.6843u   458.4490m 
  269.00000m   54.8476n  483.3690m  273.2603u   458.4492m 
  270.00000m   56.3912n  483.3688m  272.8365u   458.4494m 
  271.00000m   57.9759n  483.3686m  272.4130u   458.4497m 
  272.00000m   59.6027n  483.3683m  271.9896u   458.4499m 
  273.00000m   61.2724n  483.3681m  271.5664u   458.4501m 
  274.00000m   62.9863n  483.3679m  271.1435u   458.4503m 
  275.00000m   64.7454n  483.3676m  270.7207u   458.4505m 
  276.00000m   66.5507n  483.3674m  270.2981u   458.4507m 
  277.00000m   68.4033n  483.3672m  269.8758u   458.4509m 
  278.00000m   70.3045n  483.3670m  269.4536u   458.4511m 
  279.00000m   72.2554n  483.3667m  269.0317u   458.4513m 
  280.00000m   74.2571n  483.3665m  268.6100u   458.4516m 
  281.00000m   76.3109n  483.3663m  268.1884u   458.4518m 
  282.00000m   78.4180n  483.3660m  267.7671u   458.4520m 
  283.00000m   80.5796n  483.3658m  267.3460u   458.4522m 
  284.00000m   82.7972n  483.3656m  266.9251u   458.4524m 
  285.00000m   85.0719n  483.3653m  266.5044u   458.4526m 
  286.00000m   87.4051n  483.3651m  266.0839u   458.4528m 
  287.00000m   89.7982n  483.3649m  265.6636u   458.4530m 
  288.00000m   92.2526n  483.3647m  265.2435u   458.4532m 
  289.00000m   94.7698n  483.3644m  264.8236u   458.4535m 
  290.00000m   97.3510n  483.3642m  264.4039u   458.4537m 
  291.00000m   99.9980n  483.3640m  263.9845u   458.4539m 
  292.00000m  102.7121n  483.3637m  263.5652u   458.4541m 
  293.00000m  105.4949n  483.3635m  263.1462u   458.4543m 
  294.00000m  108.3481n  483.3633m  262.7273u   458.4545m 
  295.00000m  111.2731n  483.3630m  262.3087u   458.4547m 
  296.00000m  114.2717n  483.3628m  261.8903u   458.4549m 
  297.00000m  117.3455n  483.3626m  261.4721u   458.4551m 
  298.00000m  120.4962n  483.3623m  261.0541u   458.4554m 
  299.00000m  123.7256n  483.3621m  260.6363u   458.4556m 
  300.00000m  127.0355n  483.3619m  260.2187u   458.4558m 
  301.00000m  130.4276n  483.3617m  259.8014u   458.4560m 
  302.00000m  133.9038n  483.3614m  259.3842u   458.4562m 
  303.00000m  137.4659n  483.3612m  258.9673u   458.4564m 
  304.00000m  141.1160n  483.3610m  258.5505u   458.4566m 
  305.00000m  144.8559n  483.3607m  258.1340u   458.4568m 
  306.00000m  148.6877n  483.3605m  257.7177u   458.4570m 
  307.00000m  152.6134n  483.3603m  257.3016u   458.4572m 
  308.00000m  156.6350n  483.3600m  256.8857u   458.4575m 
  309.00000m  160.7547n  483.3598m  256.4701u   458.4577m 
  310.00000m  164.9746n  483.3596m  256.0546u   458.4579m 
  311.00000m  169.2969n  483.3594m  255.6394u   458.4581m 
