 ****** HSPICE -- O-2018.09-SP2 win64 (Feb 25 2019) ******                      
  Copyright (c) 1986 - 2021 by Synopsys, Inc. All Rights Reserved.              
  This software and the associated documentation are proprietary
  to Synopsys, Inc. This software may only be used in accordance
  with the terms and conditions of a written license agreement with
  Synopsys, Inc. All other use, reproduction, or distribution of
  this software is strictly prohibited.
  Input File: sample.sp                                                         
  Command line options: C:\synopsys\Hspice_O-2018.09-SP2\WIN64\hspice.com -i sample.sp -o C:\mdsy\proj2\sample.lis
  Start time: Sun Dec  5 22:01:17 2021
  lic:  
  lic: FLEXlm: SDK_11.7.3 
  lic: USER:   admin                HOSTNAME: DESKTOP-3KO7170 
  lic: HOSTID: "d83bbfb49802"       PID:      14240 
  lic: Using FLEXlm license file: 
  lic: 27000@DESKTOP-3KO7170 
  lic: Checkout 1 hspice 
  lic: License/Maintenance for hspice will expire on 30-dec-2029/2019.2019 
  lic: 1(in_use)/99(total) FLOATING license(s) on SERVER 27000@DESKTOP-3KO7170 
  lic:   
 

  
      

Element variations(Local):   element              parameter
 *****************************************************************
 ******  option summary
 ******
 runlvl  = 3         bypass  = 2.0000    
 ******
 

 ****** dc transfer curves tnom=  25.000 temp=  25.000 ******
x

 wp           param      param     
             gm         ids        
    5.00000u  693.0058u  124.1487u 
    5.01000u  694.4498u  124.4076u 
    5.02000u  695.8938u  124.6665u 
    5.03000u  697.3378u  124.9254u 
    5.04000u  698.7818u  125.1843u 
    5.05000u  700.2259u  125.4433u 
    5.06000u  701.6699u  125.7022u 
    5.07000u  703.1140u  125.9611u 
    5.08000u  704.5580u  126.2200u 
    5.09000u  706.0021u  126.4789u 
    5.10000u  707.4461u  126.7379u 
    5.11000u  708.8902u  126.9968u 
    5.12000u  710.3342u  127.2557u 
    5.13000u  711.7783u  127.5147u 
    5.14000u  713.2224u  127.7736u 
    5.15000u  714.6665u  128.0325u 
    5.16000u  716.1105u  128.2914u 
    5.17000u  717.5546u  128.5504u 
    5.18000u  718.9987u  128.8093u 
    5.19000u  720.4428u  129.0682u 
    5.20000u  721.8869u  129.3272u 
    5.21000u  723.3310u  129.5861u 
    5.22000u  724.7751u  129.8450u 
    5.23000u  726.2192u  130.1040u 
    5.24000u  727.6633u  130.3629u 
    5.25000u  729.1075u  130.6219u 
    5.26000u  730.5516u  130.8808u 
    5.27000u  731.9957u  131.1397u 
    5.28000u  733.4398u  131.3987u 
    5.29000u  734.8840u  131.6576u 
    5.30000u  736.3281u  131.9166u 
    5.31000u  737.7723u  132.1755u 
    5.32000u  739.2164u  132.4344u 
    5.33000u  740.6606u  132.6934u 
    5.34000u  742.1047u  132.9523u 
    5.35000u  743.5489u  133.2113u 
    5.36000u  744.9930u  133.4702u 
    5.37000u  746.4372u  133.7292u 
    5.38000u  747.8814u  133.9881u 
    5.39000u  749.3256u  134.2471u 
    5.40000u  750.7697u  134.5060u 
    5.41000u  752.2139u  134.7649u 
    5.42000u  753.6581u  135.0239u 
    5.43000u  755.1023u  135.2828u 
    5.44000u  756.5465u  135.5418u 
    5.45000u  757.9907u  135.8007u 
    5.46000u  759.4349u  136.0597u 
    5.47000u  760.8791u  136.3187u 
    5.48000u  762.3233u  136.5776u 
    5.49000u  763.7675u  136.8366u 
    5.50000u  765.2117u  137.0955u 
    5.51000u  766.6559u  137.3545u 
    5.52000u  768.1002u  137.6134u 
    5.53000u  769.5444u  137.8724u 
    5.54000u  770.9886u  138.1313u 
    5.55000u  772.4329u  138.3903u 
    5.56000u  773.8771u  138.6492u 
    5.57000u  775.3213u  138.9082u 
    5.58000u  776.7656u  139.1672u 
    5.59000u  778.2098u  139.4261u 
    5.60000u  779.6541u  139.6851u 
    5.61000u  781.0983u  139.9440u 
    5.62000u  782.5426u  140.2030u 
    5.63000u  783.9868u  140.4620u 
    5.64000u  785.4311u  140.7209u 
    5.65000u  786.8754u  140.9799u 
    5.66000u  788.3196u  141.2389u 
    5.67000u  789.7639u  141.4978u 
    5.68000u  791.2082u  141.7568u 
    5.69000u  792.6525u  142.0158u 
    5.70000u  794.0967u  142.2747u 
    5.71000u  795.5410u  142.5337u 
    5.72000u  796.9853u  142.7927u 
    5.73000u  798.4296u  143.0516u 
    5.74000u  799.8739u  143.3106u 
    5.75000u  801.3182u  143.5696u 
    5.76000u  802.7625u  143.8285u 
    5.77000u  804.2068u  144.0875u 
    5.78000u  805.6511u  144.3465u 
    5.79000u  807.0954u  144.6054u 
    5.80000u  808.5397u  144.8644u 
    5.81000u  809.9841u  145.1234u 
    5.82000u  811.4284u  145.3824u 
    5.83000u  812.8727u  145.6413u 
    5.84000u  814.3170u  145.9003u 
    5.85000u  815.7614u  146.1593u 
    5.86000u  817.2057u  146.4183u 
    5.87000u  818.6500u  146.6772u 
    5.88000u  820.0944u  146.9362u 
    5.89000u  821.5387u  147.1952u 
    5.90000u  822.9830u  147.4542u 
    5.91000u  824.4274u  147.7131u 
    5.92000u  825.8717u  147.9721u 
    5.93000u  827.3161u  148.2311u 
    5.94000u  828.7604u  148.4901u 
    5.95000u  830.2048u  148.7491u 
    5.96000u  831.6492u  149.0080u 
    5.97000u  833.0935u  149.2670u 
    5.98000u  834.5379u  149.5260u 
    5.99000u  835.9823u  149.7850u 
    6.00000u  837.4266u  150.0440u 
    6.01000u  838.8710u  150.3029u 
    6.02000u  840.3154u  150.5619u 
    6.03000u  841.7598u  150.8209u 
    6.04000u  843.2041u  151.0799u 
    6.05000u  844.6485u  151.3389u 
    6.06000u  846.0929u  151.5979u 
    6.07000u  847.5373u  151.8568u 
    6.08000u  848.9817u  152.1158u 
    6.09000u  850.4261u  152.3748u 
    6.10000u  851.8705u  152.6338u 
    6.11000u  853.3149u  152.8928u 
    6.12000u  854.7593u  153.1518u 
    6.13000u  856.2037u  153.4108u 
    6.14000u  857.6481u  153.6698u 
    6.15000u  859.0925u  153.9288u 
    6.16000u  860.5369u  154.1877u 
    6.17000u  861.9813u  154.4467u 
    6.18000u  863.4258u  154.7057u 
    6.19000u  864.8702u  154.9647u 
    6.20000u  866.3146u  155.2237u 
    6.21000u  867.7590u  155.4827u 
    6.22000u  869.2035u  155.7417u 
    6.23000u  870.6479u  156.0007u 
    6.24000u  872.0923u  156.2597u 
    6.25000u  873.5368u  156.5187u 
    6.26000u  874.9812u  156.7777u 
    6.27000u  876.4256u  157.0367u 
    6.28000u  877.8701u  157.2956u 
    6.29000u  879.3145u  157.5546u 
    6.30000u  880.7590u  157.8136u 
    6.31000u  882.2034u  158.0726u 
    6.32000u  883.6479u  158.3316u 
    6.33000u  885.0923u  158.5906u 
    6.34000u  886.5368u  158.8496u 
    6.35000u  887.9812u  159.1086u 
    6.36000u  889.4257u  159.3676u 
    6.37000u  890.8702u  159.6266u 
    6.38000u  892.3146u  159.8856u 
    6.39000u  893.7591u  160.1446u 
    6.40000u  895.2036u  160.4036u 
    6.41000u  896.6481u  160.6626u 
    6.42000u  898.0925u  160.9216u 
    6.43000u  899.5370u  161.1806u 
    6.44000u  900.9815u  161.4396u 
    6.45000u  902.4260u  161.6986u 
    6.46000u  903.8704u  161.9576u 
    6.47000u  905.3149u  162.2166u 
    6.48000u  906.7594u  162.4756u 
    6.49000u  908.2039u  162.7346u 
    6.50000u  909.6484u  162.9936u 
    6.51000u  911.0929u  163.2526u 
    6.52000u  912.5374u  163.5116u 
    6.53000u  913.9819u  163.7707u 
    6.54000u  915.4264u  164.0297u 
    6.55000u  916.8709u  164.2887u 
    6.56000u  918.3154u  164.5477u 
    6.57000u  919.7599u  164.8067u 
    6.58000u  921.2044u  165.0657u 
    6.59000u  922.6489u  165.3247u 
    6.60000u  924.0935u  165.5837u 
    6.61000u  925.5380u  165.8427u 
    6.62000u  926.9825u  166.1017u 
    6.63000u  928.4270u  166.3607u 
    6.64000u  929.8715u  166.6197u 
    6.65000u  931.3161u  166.8787u 
    6.66000u  932.7606u  167.1378u 
    6.67000u  934.2051u  167.3968u 
    6.68000u  935.6496u  167.6558u 
    6.69000u  937.0942u  167.9148u 
    6.70000u  938.5387u  168.1738u 
    6.71000u  939.9832u  168.4328u 
    6.72000u  941.4278u  168.6918u 
    6.73000u  942.8723u  168.9508u 
    6.74000u  944.3169u  169.2098u 
    6.75000u  945.7614u  169.4689u 
    6.76000u  947.2060u  169.7279u 
    6.77000u  948.6505u  169.9869u 
    6.78000u  950.0951u  170.2459u 
    6.79000u  951.5396u  170.5049u 
    6.80000u  952.9842u  170.7639u 
    6.81000u  954.4287u  171.0229u 
    6.82000u  955.8733u  171.2820u 
    6.83000u  957.3178u  171.5410u 
    6.84000u  958.7624u  171.8000u 
    6.85000u  960.2070u  172.0590u 
    6.86000u  961.6515u  172.3180u 
    6.87000u  963.0961u  172.5770u 
    6.88000u  964.5407u  172.8361u 
    6.89000u  965.9852u  173.0951u 
    6.90000u  967.4298u  173.3541u 
    6.91000u  968.8744u  173.6131u 
    6.92000u  970.3190u  173.8721u 
    6.93000u  971.7635u  174.1311u 
    6.94000u  973.2081u  174.3902u 
    6.95000u  974.6527u  174.6492u 
    6.96000u  976.0973u  174.9082u 
    6.97000u  977.5419u  175.1672u 
    6.98000u  978.9864u  175.4262u 
    6.99000u  980.4310u  175.6853u 
    7.00000u  981.8756u  175.9443u 
    7.01000u  983.3202u  176.2033u 
    7.02000u  984.7648u  176.4623u 
    7.03000u  986.2094u  176.7214u 
    7.04000u  987.6540u  176.9804u 
    7.05000u  989.0986u  177.2394u 
    7.06000u  990.5432u  177.4984u 
    7.07000u  991.9878u  177.7574u 
    7.08000u  993.4324u  178.0165u 
    7.09000u  994.8770u  178.2755u 
    7.10000u  996.3216u  178.5345u 
    7.11000u  997.7662u  178.7935u 
    7.12000u  999.2108u  179.0526u 
    7.13000u    1.0007m  179.3116u 
    7.14000u    1.0021m  179.5706u 
    7.15000u    1.0035m  179.8296u 
    7.16000u    1.0050m  180.0887u 
    7.17000u    1.0064m  180.3477u 
    7.18000u    1.0079m  180.6067u 
    7.19000u    1.0093m  180.8657u 
    7.20000u    1.0108m  181.1248u 
    7.21000u    1.0122m  181.3838u 
    7.22000u    1.0137m  181.6428u 
    7.23000u    1.0151m  181.9019u 
    7.24000u    1.0165m  182.1609u 
    7.25000u    1.0180m  182.4199u 
    7.26000u    1.0194m  182.6789u 
    7.27000u    1.0209m  182.9380u 
    7.28000u    1.0223m  183.1970u 
    7.29000u    1.0238m  183.4560u 
    7.30000u    1.0252m  183.7151u 
    7.31000u    1.0267m  183.9741u 
    7.32000u    1.0281m  184.2331u 
    7.33000u    1.0295m  184.4921u 
    7.34000u    1.0310m  184.7512u 
    7.35000u    1.0324m  185.0102u 
    7.36000u    1.0339m  185.2692u 
    7.37000u    1.0353m  185.5283u 
    7.38000u    1.0368m  185.7873u 
    7.39000u    1.0382m  186.0463u 
    7.40000u    1.0397m  186.3054u 
    7.41000u    1.0411m  186.5644u 
    7.42000u    1.0425m  186.8234u 
    7.43000u    1.0440m  187.0825u 
    7.44000u    1.0454m  187.3415u 
    7.45000u    1.0469m  187.6005u 
    7.46000u    1.0483m  187.8596u 
    7.47000u    1.0498m  188.1186u 
    7.48000u    1.0512m  188.3776u 
    7.49000u    1.0527m  188.6367u 
    7.50000u    1.0541m  188.8957u 
    7.51000u    1.0556m  189.1547u 
    7.52000u    1.0570m  189.4138u 
    7.53000u    1.0584m  189.6728u 
    7.54000u    1.0599m  189.9319u 
    7.55000u    1.0613m  190.1909u 
    7.56000u    1.0628m  190.4499u 
    7.57000u    1.0642m  190.7090u 
    7.58000u    1.0657m  190.9680u 
    7.59000u    1.0671m  191.2270u 
    7.60000u    1.0686m  191.4861u 
    7.61000u    1.0700m  191.7451u 
    7.62000u    1.0714m  192.0041u 
    7.63000u    1.0729m  192.2632u 
    7.64000u    1.0743m  192.5222u 
    7.65000u    1.0758m  192.7813u 
    7.66000u    1.0772m  193.0403u 
    7.67000u    1.0787m  193.2993u 
    7.68000u    1.0801m  193.5584u 
    7.69000u    1.0816m  193.8174u 
    7.70000u    1.0830m  194.0765u 
    7.71000u    1.0844m  194.3355u 
    7.72000u    1.0859m  194.5945u 
    7.73000u    1.0873m  194.8536u 
    7.74000u    1.0888m  195.1126u 
    7.75000u    1.0902m  195.3717u 
    7.76000u    1.0917m  195.6307u 
    7.77000u    1.0931m  195.8897u 
    7.78000u    1.0946m  196.1488u 
    7.79000u    1.0960m  196.4078u 
    7.80000u    1.0974m  196.6669u 
    7.81000u    1.0989m  196.9259u 
    7.82000u    1.1003m  197.1850u 
    7.83000u    1.1018m  197.4440u 
    7.84000u    1.1032m  197.7030u 
    7.85000u    1.1047m  197.9621u 
    7.86000u    1.1061m  198.2211u 
    7.87000u    1.1076m  198.4802u 
    7.88000u    1.1090m  198.7392u 
    7.89000u    1.1105m  198.9983u 
    7.90000u    1.1119m  199.2573u 
    7.91000u    1.1133m  199.5164u 
    7.92000u    1.1148m  199.7754u 
    7.93000u    1.1162m  200.0344u 
    7.94000u    1.1177m  200.2935u 
    7.95000u    1.1191m  200.5525u 
    7.96000u    1.1206m  200.8116u 
    7.97000u    1.1220m  201.0706u 
    7.98000u    1.1235m  201.3297u 
    7.99000u    1.1249m  201.5887u 
    8.00000u    1.1263m  201.8478u 
    8.01000u    1.1278m  202.1068u 
    8.02000u    1.1292m  202.3659u 
    8.03000u    1.1307m  202.6249u 
    8.04000u    1.1321m  202.8840u 
    8.05000u    1.1336m  203.1430u 
    8.06000u    1.1350m  203.4020u 
    8.07000u    1.1365m  203.6611u 
    8.08000u    1.1379m  203.9201u 
    8.09000u    1.1393m  204.1792u 
    8.10000u    1.1408m  204.4382u 
    8.11000u    1.1422m  204.6973u 
    8.12000u    1.1437m  204.9563u 
    8.13000u    1.1451m  205.2154u 
    8.14000u    1.1466m  205.4744u 
    8.15000u    1.1480m  205.7335u 
    8.16000u    1.1495m  205.9925u 
    8.17000u    1.1509m  206.2516u 
    8.18000u    1.1523m  206.5106u 
    8.19000u    1.1538m  206.7697u 
    8.20000u    1.1552m  207.0287u 
    8.21000u    1.1567m  207.2878u 
    8.22000u    1.1581m  207.5468u 
    8.23000u    1.1596m  207.8059u 
    8.24000u    1.1610m  208.0649u 
    8.25000u    1.1625m  208.3240u 
    8.26000u    1.1639m  208.5830u 
    8.27000u    1.1654m  208.8421u 
    8.28000u    1.1668m  209.1011u 
    8.29000u    1.1682m  209.3602u 
    8.30000u    1.1697m  209.6192u 
    8.31000u    1.1711m  209.8783u 
    8.32000u    1.1726m  210.1374u 
    8.33000u    1.1740m  210.3964u 
    8.34000u    1.1755m  210.6555u 
    8.35000u    1.1769m  210.9145u 
    8.36000u    1.1784m  211.1736u 
    8.37000u    1.1798m  211.4326u 
    8.38000u    1.1812m  211.6917u 
    8.39000u    1.1827m  211.9507u 
    8.40000u    1.1841m  212.2098u 
    8.41000u    1.1856m  212.4688u 
    8.42000u    1.1870m  212.7279u 
    8.43000u    1.1885m  212.9869u 
    8.44000u    1.1899m  213.2460u 
    8.45000u    1.1914m  213.5051u 
    8.46000u    1.1928m  213.7641u 
    8.47000u    1.1942m  214.0232u 
    8.48000u    1.1957m  214.2822u 
    8.49000u    1.1971m  214.5413u 
    8.50000u    1.1986m  214.8003u 
    8.51000u    1.2000m  215.0594u 
    8.52000u    1.2015m  215.3184u 
    8.53000u    1.2029m  215.5775u 
    8.54000u    1.2044m  215.8366u 
    8.55000u    1.2058m  216.0956u 
    8.56000u    1.2072m  216.3547u 
    8.57000u    1.2087m  216.6137u 
    8.58000u    1.2101m  216.8728u 
    8.59000u    1.2116m  217.1318u 
    8.60000u    1.2130m  217.3909u 
    8.61000u    1.2145m  217.6500u 
    8.62000u    1.2159m  217.9090u 
    8.63000u    1.2174m  218.1681u 
    8.64000u    1.2188m  218.4271u 
    8.65000u    1.2203m  218.6862u 
    8.66000u    1.2217m  218.9453u 
    8.67000u    1.2231m  219.2043u 
    8.68000u    1.2246m  219.4634u 
    8.69000u    1.2260m  219.7224u 
    8.70000u    1.2275m  219.9815u 
    8.71000u    1.2289m  220.2405u 
    8.72000u    1.2304m  220.4996u 
    8.73000u    1.2318m  220.7587u 
    8.74000u    1.2333m  221.0177u 
    8.75000u    1.2347m  221.2768u 
    8.76000u    1.2361m  221.5358u 
    8.77000u    1.2376m  221.7949u 
    8.78000u    1.2390m  222.0540u 
    8.79000u    1.2405m  222.3130u 
    8.80000u    1.2419m  222.5721u 
    8.81000u    1.2434m  222.8312u 
    8.82000u    1.2448m  223.0902u 
    8.83000u    1.2463m  223.3493u 
    8.84000u    1.2477m  223.6083u 
    8.85000u    1.2491m  223.8674u 
    8.86000u    1.2506m  224.1265u 
    8.87000u    1.2520m  224.3855u 
    8.88000u    1.2535m  224.6446u 
    8.89000u    1.2549m  224.9036u 
    8.90000u    1.2564m  225.1627u 
    8.91000u    1.2578m  225.4218u 
    8.92000u    1.2593m  225.6808u 
    8.93000u    1.2607m  225.9399u 
    8.94000u    1.2622m  226.1990u 
    8.95000u    1.2636m  226.4580u 
    8.96000u    1.2650m  226.7171u 
    8.97000u    1.2665m  226.9762u 
    8.98000u    1.2679m  227.2352u 
    8.99000u    1.2694m  227.4943u 
    9.00000u    1.2708m  227.7533u 
    9.01000u    1.2723m  228.0124u 
    9.02000u    1.2737m  228.2715u 
    9.03000u    1.2752m  228.5305u 
    9.04000u    1.2766m  228.7896u 
    9.05000u    1.2780m  229.0487u 
    9.06000u    1.2795m  229.3077u 
    9.07000u    1.2809m  229.5668u 
    9.08000u    1.2824m  229.8259u 
    9.09000u    1.2838m  230.0849u 
    9.10000u    1.2853m  230.3440u 
    9.11000u    1.2867m  230.6031u 
    9.12000u    1.2882m  230.8621u 
    9.13000u    1.2896m  231.1212u 
    9.14000u    1.2910m  231.3803u 
    9.15000u    1.2925m  231.6393u 
    9.16000u    1.2939m  231.8984u 
    9.17000u    1.2954m  232.1575u 
    9.18000u    1.2968m  232.4165u 
    9.19000u    1.2983m  232.6756u 
    9.20000u    1.2997m  232.9347u 
    9.21000u    1.3012m  233.1937u 
    9.22000u    1.3026m  233.4528u 
    9.23000u    1.3041m  233.7119u 
    9.24000u    1.3055m  233.9709u 
    9.25000u    1.3069m  234.2300u 
    9.26000u    1.3084m  234.4891u 
    9.27000u    1.3098m  234.7481u 
    9.28000u    1.3113m  235.0072u 
    9.29000u    1.3127m  235.2663u 
    9.30000u    1.3142m  235.5253u 
    9.31000u    1.3156m  235.7844u 
    9.32000u    1.3171m  236.0435u 
    9.33000u    1.3185m  236.3025u 
    9.34000u    1.3199m  236.5616u 
    9.35000u    1.3214m  236.8207u 
    9.36000u    1.3228m  237.0797u 
    9.37000u    1.3243m  237.3388u 
    9.38000u    1.3257m  237.5979u 
    9.39000u    1.3272m  237.8569u 
    9.40000u    1.3286m  238.1160u 
    9.41000u    1.3301m  238.3751u 
    9.42000u    1.3315m  238.6342u 
    9.43000u    1.3329m  238.8932u 
    9.44000u    1.3344m  239.1523u 
    9.45000u    1.3358m  239.4114u 
    9.46000u    1.3373m  239.6704u 
    9.47000u    1.3387m  239.9295u 
    9.48000u    1.3402m  240.1886u 
    9.49000u    1.3416m  240.4476u 
    9.50000u    1.3431m  240.7067u 
    9.51000u    1.3445m  240.9658u 
    9.52000u    1.3460m  241.2249u 
    9.53000u    1.3474m  241.4839u 
    9.54000u    1.3488m  241.7430u 
    9.55000u    1.3503m  242.0021u 
    9.56000u    1.3517m  242.2611u 
    9.57000u    1.3532m  242.5202u 
    9.58000u    1.3546m  242.7793u 
    9.59000u    1.3561m  243.0384u 
    9.60000u    1.3575m  243.2974u 
    9.61000u    1.3590m  243.5565u 
    9.62000u    1.3604m  243.8156u 
    9.63000u    1.3618m  244.0746u 
    9.64000u    1.3633m  244.3337u 
    9.65000u    1.3647m  244.5928u 
    9.66000u    1.3662m  244.8519u 
    9.67000u    1.3676m  245.1109u 
    9.68000u    1.3691m  245.3700u 
    9.69000u    1.3705m  245.6291u 
    9.70000u    1.3720m  245.8882u 
    9.71000u    1.3734m  246.1472u 
    9.72000u    1.3749m  246.4063u 
    9.73000u    1.3763m  246.6654u 
    9.74000u    1.3777m  246.9244u 
    9.75000u    1.3792m  247.1835u 
    9.76000u    1.3806m  247.4426u 
    9.77000u    1.3821m  247.7017u 
    9.78000u    1.3835m  247.9607u 
    9.79000u    1.3850m  248.2198u 
    9.80000u    1.3864m  248.4789u 
    9.81000u    1.3879m  248.7380u 
    9.82000u    1.3893m  248.9970u 
    9.83000u    1.3907m  249.2561u 
    9.84000u    1.3922m  249.5152u 
    9.85000u    1.3936m  249.7743u 
    9.86000u    1.3951m  250.0333u 
    9.87000u    1.3965m  250.2924u 
    9.88000u    1.3980m  250.5515u 
    9.89000u    1.3994m  250.8106u 
    9.90000u    1.4009m  251.0696u 
    9.91000u    1.4023m  251.3287u 
    9.92000u    1.4037m  251.5878u 
    9.93000u    1.4052m  251.8469u 
    9.94000u    1.4066m  252.1059u 
    9.95000u    1.4081m  252.3650u 
    9.96000u    1.4095m  252.6241u 
    9.97000u    1.4110m  252.8832u 
    9.98000u    1.4124m  253.1422u 
    9.99000u    1.4139m  253.4013u 
   10.00000u    1.4153m  253.6603u 
y

          ***** job concluded
1****** HSPICE -- O-2018.09-SP2 win64 (Feb 25 2019) ******                      
 ******  
 

 ****** job statistics summary tnom=  25.000 temp=  25.000 ******

  ******  HSPICE Threads Information  ******

  Command Line Threads Count :     1
  Available CPU Count        :     8
  Actual Threads Count       :     1


  ******  Circuit Statistics  ******
  # nodes       =       5 # elements   =       3
