 ****** HSPICE -- O-2018.09-SP2 win64 (Feb 25 2019) ******                      
  Copyright (c) 1986 - 2021 by Synopsys, Inc. All Rights Reserved.              
  This software and the associated documentation are proprietary
  to Synopsys, Inc. This software may only be used in accordance
  with the terms and conditions of a written license agreement with
  Synopsys, Inc. All other use, reproduction, or distribution of
  this software is strictly prohibited.
  Input File: cmosinv.sp                                                        
  Command line options: C:\synopsys\Hspice_O-2018.09-SP2\WIN64\hspice.com -i cmosinv.sp -o C:\sdsy\case4\cmosinv.lis
  Start time: Wed Nov  3 16:51:06 2021
  lic:  
  lic: FLEXlm: SDK_11.7.3 
  lic: USER:   admin                HOSTNAME: DESKTOP-3KO7170 
  lic: HOSTID: "d83bbfb49802"       PID:      52292 
  lic: Using FLEXlm license file: 
  lic: 27000@DESKTOP-3KO7170 
  lic: Checkout 1 hspice 
  lic: License/Maintenance for hspice will expire on 30-dec-2029/2019.2019 
  lic: 1(in_use)/99(total) FLOATING license(s) on SERVER 27000@DESKTOP-3KO7170 
  lic:   
  
      

Element variations(Local):   element              parameter
 *****************************************************************
 ******  option summary
 ******
 runlvl  = 3         bypass  = 2.0000    
 ******
 

 ****** dc transfer curves tnom=  25.000 temp=  25.000 ******
x

 volt         voltage    voltage   
             vin        vout       
    0.          0.       999.9698m 
    1.00000m    1.0000m  999.9694m 
    2.00000m    2.0000m  999.9689m 
    3.00000m    3.0000m  999.9685m 
    4.00000m    4.0000m  999.9680m 
    5.00000m    5.0000m  999.9675m 
    6.00000m    6.0000m  999.9670m 
    7.00000m    7.0000m  999.9665m 
    8.00000m    8.0000m  999.9660m 
    9.00000m    9.0000m  999.9654m 
   10.00000m   10.0000m  999.9649m 
   11.00000m   11.0000m  999.9643m 
   12.00000m   12.0000m  999.9637m 
   13.00000m   13.0000m  999.9630m 
   14.00000m   14.0000m  999.9624m 
   15.00000m   15.0000m  999.9617m 
   16.00000m   16.0000m  999.9610m 
   17.00000m   17.0000m  999.9603m 
   18.00000m   18.0000m  999.9595m 
   19.00000m   19.0000m  999.9587m 
   20.00000m   20.0000m  999.9579m 
   21.00000m   21.0000m  999.9571m 
   22.00000m   22.0000m  999.9563m 
   23.00000m   23.0000m  999.9554m 
   24.00000m   24.0000m  999.9545m 
   25.00000m   25.0000m  999.9535m 
   26.00000m   26.0000m  999.9526m 
   27.00000m   27.0000m  999.9516m 
   28.00000m   28.0000m  999.9505m 
   29.00000m   29.0000m  999.9495m 
   30.00000m   30.0000m  999.9484m 
   31.00000m   31.0000m  999.9472m 
   32.00000m   32.0000m  999.9461m 
   33.00000m   33.0000m  999.9449m 
   34.00000m   34.0000m  999.9436m 
   35.00000m   35.0000m  999.9423m 
   36.00000m   36.0000m  999.9410m 
   37.00000m   37.0000m  999.9396m 
   38.00000m   38.0000m  999.9382m 
   39.00000m   39.0000m  999.9368m 
   40.00000m   40.0000m  999.9353m 
   41.00000m   41.0000m  999.9337m 
   42.00000m   42.0000m  999.9321m 
   43.00000m   43.0000m  999.9305m 
   44.00000m   44.0000m  999.9287m 
   45.00000m   45.0000m  999.9270m 
   46.00000m   46.0000m  999.9252m 
   47.00000m   47.0000m  999.9233m 
   48.00000m   48.0000m  999.9214m 
   49.00000m   49.0000m  999.9194m 
   50.00000m   50.0000m  999.9174m 
   51.00000m   51.0000m  999.9153m 
   52.00000m   52.0000m  999.9131m 
   53.00000m   53.0000m  999.9109m 
   54.00000m   54.0000m  999.9085m 
   55.00000m   55.0000m  999.9062m 
   56.00000m   56.0000m  999.9037m 
   57.00000m   57.0000m  999.9012m 
   58.00000m   58.0000m  999.8986m 
   59.00000m   59.0000m  999.8959m 
   60.00000m   60.0000m  999.8931m 
   61.00000m   61.0000m  999.8903m 
   62.00000m   62.0000m  999.8874m 
   63.00000m   63.0000m  999.8843m 
   64.00000m   64.0000m  999.8812m 
   65.00000m   65.0000m  999.8780m 
   66.00000m   66.0000m  999.8747m 
   67.00000m   67.0000m  999.8713m 
   68.00000m   68.0000m  999.8678m 
   69.00000m   69.0000m  999.8642m 
   70.00000m   70.0000m  999.8605m 
   71.00000m   71.0000m  999.8567m 
   72.00000m   72.0000m  999.8527m 
   73.00000m   73.0000m  999.8487m 
   74.00000m   74.0000m  999.8445m 
   75.00000m   75.0000m  999.8402m 
   76.00000m   76.0000m  999.8357m 
   77.00000m   77.0000m  999.8312m 
   78.00000m   78.0000m  999.8265m 
   79.00000m   79.0000m  999.8216m 
   80.00000m   80.0000m  999.8166m 
   81.00000m   81.0000m  999.8115m 
   82.00000m   82.0000m  999.8062m 
   83.00000m   83.0000m  999.8008m 
   84.00000m   84.0000m  999.7952m 
   85.00000m   85.0000m  999.7895m 
   86.00000m   86.0000m  999.7835m 
   87.00000m   87.0000m  999.7774m 
   88.00000m   88.0000m  999.7712m 
   89.00000m   89.0000m  999.7647m 
   90.00000m   90.0000m  999.7581m 
   91.00000m   91.0000m  999.7512m 
   92.00000m   92.0000m  999.7442m 
   93.00000m   93.0000m  999.7369m 
   94.00000m   94.0000m  999.7295m 
   95.00000m   95.0000m  999.7218m 
   96.00000m   96.0000m  999.7140m 
   97.00000m   97.0000m  999.7058m 
   98.00000m   98.0000m  999.6975m 
   99.00000m   99.0000m  999.6889m 
  100.00000m  100.0000m  999.6801m 
  101.00000m  101.0000m  999.6710m 
  102.00000m  102.0000m  999.6617m 
  103.00000m  103.0000m  999.6521m 
  104.00000m  104.0000m  999.6422m 
  105.00000m  105.0000m  999.6321m 
  106.00000m  106.0000m  999.6216m 
  107.00000m  107.0000m  999.6109m 
  108.00000m  108.0000m  999.5999m 
  109.00000m  109.0000m  999.5885m 
  110.00000m  110.0000m  999.5769m 
  111.00000m  111.0000m  999.5649m 
  112.00000m  112.0000m  999.5526m 
  113.00000m  113.0000m  999.5399m 
  114.00000m  114.0000m  999.5269m 
  115.00000m  115.0000m  999.5135m 
  116.00000m  116.0000m  999.4997m 
  117.00000m  117.0000m  999.4856m 
  118.00000m  118.0000m  999.4711m 
  119.00000m  119.0000m  999.4561m 
  120.00000m  120.0000m  999.4408m 
  121.00000m  121.0000m  999.4250m 
  122.00000m  122.0000m  999.4089m 
  123.00000m  123.0000m  999.3922m 
  124.00000m  124.0000m  999.3751m 
  125.00000m  125.0000m  999.3576m 
  126.00000m  126.0000m  999.3395m 
  127.00000m  127.0000m  999.3210m 
  128.00000m  128.0000m  999.3020m 
  129.00000m  129.0000m  999.2824m 
  130.00000m  130.0000m  999.2624m 
  131.00000m  131.0000m  999.2418m 
  132.00000m  132.0000m  999.2206m 
  133.00000m  133.0000m  999.1989m 
  134.00000m  134.0000m  999.1765m 
  135.00000m  135.0000m  999.1536m 
  136.00000m  136.0000m  999.1301m 
  137.00000m  137.0000m  999.1059m 
  138.00000m  138.0000m  999.0812m 
  139.00000m  139.0000m  999.0557m 
  140.00000m  140.0000m  999.0296m 
  141.00000m  141.0000m  999.0028m 
  142.00000m  142.0000m  998.9753m 
  143.00000m  143.0000m  998.9470m 
  144.00000m  144.0000m  998.9180m 
  145.00000m  145.0000m  998.8883m 
  146.00000m  146.0000m  998.8578m 
  147.00000m  147.0000m  998.8265m 
  148.00000m  148.0000m  998.7943m 
  149.00000m  149.0000m  998.7614m 
  150.00000m  150.0000m  998.7276m 
  151.00000m  151.0000m  998.6929m 
  152.00000m  152.0000m  998.6573m 
  153.00000m  153.0000m  998.6208m 
  154.00000m  154.0000m  998.5834m 
  155.00000m  155.0000m  998.5450m 
  156.00000m  156.0000m  998.5057m 
  157.00000m  157.0000m  998.4653m 
  158.00000m  158.0000m  998.4239m 
  159.00000m  159.0000m  998.3815m 
  160.00000m  160.0000m  998.3380m 
  161.00000m  161.0000m  998.2934m 
  162.00000m  162.0000m  998.2477m 
  163.00000m  163.0000m  998.2008m 
  164.00000m  164.0000m  998.1528m 
  165.00000m  165.0000m  998.1035m 
  166.00000m  166.0000m  998.0530m 
  167.00000m  167.0000m  998.0013m 
  168.00000m  168.0000m  997.9483m 
  169.00000m  169.0000m  997.8940m 
  170.00000m  170.0000m  997.8384m 
  171.00000m  171.0000m  997.7813m 
  172.00000m  172.0000m  997.7229m 
  173.00000m  173.0000m  997.6631m 
  174.00000m  174.0000m  997.6018m 
  175.00000m  175.0000m  997.5390m 
  176.00000m  176.0000m  997.4746m 
  177.00000m  177.0000m  997.4088m 
  178.00000m  178.0000m  997.3413m 
  179.00000m  179.0000m  997.2722m 
  180.00000m  180.0000m  997.2014m 
  181.00000m  181.0000m  997.1290m 
  182.00000m  182.0000m  997.0548m 
  183.00000m  183.0000m  996.9788m 
  184.00000m  184.0000m  996.9011m 
  185.00000m  185.0000m  996.8214m 
  186.00000m  186.0000m  996.7399m 
  187.00000m  187.0000m  996.6565m 
  188.00000m  188.0000m  996.5711m 
  189.00000m  189.0000m  996.4837m 
  190.00000m  190.0000m  996.3943m 
  191.00000m  191.0000m  996.3028m 
  192.00000m  192.0000m  996.2091m 
  193.00000m  193.0000m  996.1133m 
  194.00000m  194.0000m  996.0152m 
  195.00000m  195.0000m  995.9149m 
  196.00000m  196.0000m  995.8122m 
  197.00000m  197.0000m  995.7072m 
  198.00000m  198.0000m  995.5998m 
  199.00000m  199.0000m  995.4899m 
  200.00000m  200.0000m  995.3775m 
  201.00000m  201.0000m  995.2626m 
  202.00000m  202.0000m  995.1450m 
  203.00000m  203.0000m  995.0248m 
  204.00000m  204.0000m  994.9019m 
  205.00000m  205.0000m  994.7762m 
  206.00000m  206.0000m  994.6476m 
  207.00000m  207.0000m  994.5162m 
  208.00000m  208.0000m  994.3818m 
  209.00000m  209.0000m  994.2445m 
  210.00000m  210.0000m  994.1041m 
  211.00000m  211.0000m  993.9605m 
  212.00000m  212.0000m  993.8138m 
  213.00000m  213.0000m  993.6639m 
  214.00000m  214.0000m  993.5106m 
  215.00000m  215.0000m  993.3540m 
  216.00000m  216.0000m  993.1939m 
  217.00000m  217.0000m  993.0304m 
  218.00000m  218.0000m  992.8633m 
  219.00000m  219.0000m  992.6925m 
  220.00000m  220.0000m  992.5180m 
  221.00000m  221.0000m  992.3398m 
  222.00000m  222.0000m  992.1576m 
  223.00000m  223.0000m  991.9716m 
  224.00000m  224.0000m  991.7816m 
  225.00000m  225.0000m  991.5875m 
  226.00000m  226.0000m  991.3892m 
  227.00000m  227.0000m  991.1867m 
  228.00000m  228.0000m  990.9799m 
  229.00000m  229.0000m  990.7687m 
  230.00000m  230.0000m  990.5530m 
  231.00000m  231.0000m  990.3328m 
  232.00000m  232.0000m  990.1079m 
  233.00000m  233.0000m  989.8783m 
  234.00000m  234.0000m  989.6438m 
  235.00000m  235.0000m  989.4044m 
  236.00000m  236.0000m  989.1601m 
  237.00000m  237.0000m  988.9106m 
  238.00000m  238.0000m  988.6559m 
  239.00000m  239.0000m  988.3960m 
  240.00000m  240.0000m  988.1306m 
  241.00000m  241.0000m  987.8598m 
  242.00000m  242.0000m  987.5833m 
  243.00000m  243.0000m  987.3012m 
  244.00000m  244.0000m  987.0133m 
  245.00000m  245.0000m  986.7195m 
  246.00000m  246.0000m  986.4196m 
  247.00000m  247.0000m  986.1136m 
  248.00000m  248.0000m  985.8014m 
  249.00000m  249.0000m  985.4829m 
  250.00000m  250.0000m  985.1578m 
  251.00000m  251.0000m  984.8262m 
  252.00000m  252.0000m  984.4879m 
  253.00000m  253.0000m  984.1427m 
  254.00000m  254.0000m  983.7906m 
  255.00000m  255.0000m  983.4314m 
  256.00000m  256.0000m  983.0649m 
  257.00000m  257.0000m  982.6912m 
  258.00000m  258.0000m  982.3099m 
  259.00000m  259.0000m  981.9211m 
  260.00000m  260.0000m  981.5244m 
  261.00000m  261.0000m  981.1199m 
  262.00000m  262.0000m  980.7074m 
  263.00000m  263.0000m  980.2866m 
  264.00000m  264.0000m  979.8576m 
  265.00000m  265.0000m  979.4200m 
  266.00000m  266.0000m  978.9738m 
  267.00000m  267.0000m  978.5188m 
  268.00000m  268.0000m  978.0548m 
  269.00000m  269.0000m  977.5817m 
  270.00000m  270.0000m  977.0994m 
  271.00000m  271.0000m  976.6075m 
  272.00000m  272.0000m  976.1060m 
  273.00000m  273.0000m  975.5948m 
  274.00000m  274.0000m  975.0735m 
  275.00000m  275.0000m  974.5421m 
  276.00000m  276.0000m  974.0003m 
  277.00000m  277.0000m  973.4479m 
  278.00000m  278.0000m  972.8848m 
  279.00000m  279.0000m  972.3108m 
  280.00000m  280.0000m  971.7257m 
  281.00000m  281.0000m  971.1291m 
  282.00000m  282.0000m  970.5211m 
  283.00000m  283.0000m  969.9012m 
  284.00000m  284.0000m  969.2694m 
  285.00000m  285.0000m  968.6254m 
  286.00000m  286.0000m  967.9689m 
  287.00000m  287.0000m  967.2997m 
  288.00000m  288.0000m  966.6177m 
  289.00000m  289.0000m  965.9225m 
  290.00000m  290.0000m  965.2139m 
  291.00000m  291.0000m  964.4916m 
  292.00000m  292.0000m  963.7554m 
  293.00000m  293.0000m  963.0050m 
  294.00000m  294.0000m  962.2402m 
  295.00000m  295.0000m  961.4607m 
  296.00000m  296.0000m  960.6661m 
  297.00000m  297.0000m  959.8562m 
  298.00000m  298.0000m  959.0308m 
  299.00000m  299.0000m  958.1894m 
  300.00000m  300.0000m  957.3318m 
  301.00000m  301.0000m  956.4577m 
  302.00000m  302.0000m  955.5667m 
  303.00000m  303.0000m  954.6585m 
  304.00000m  304.0000m  953.7327m 
  305.00000m  305.0000m  952.7891m 
  306.00000m  306.0000m  951.8272m 
  307.00000m  307.0000m  950.8466m 
  308.00000m  308.0000m  949.8470m 
  309.00000m  309.0000m  948.8280m 
  310.00000m  310.0000m  947.7891m 
  311.00000m  311.0000m  946.7301m 
  312.00000m  312.0000m  945.6503m 
  313.00000m  313.0000m  944.5494m 
  314.00000m  314.0000m  943.4269m 
  315.00000m  315.0000m  942.2824m 
  316.00000m  316.0000m  941.1153m 
  317.00000m  317.0000m  939.9252m 
  318.00000m  318.0000m  938.7115m 
  319.00000m  319.0000m  937.4738m 
  320.00000m  320.0000m  936.2114m 
  321.00000m  321.0000m  934.9237m 
  322.00000m  322.0000m  933.6103m 
  323.00000m  323.0000m  932.2704m 
  324.00000m  324.0000m  930.9034m 
  325.00000m  325.0000m  929.5087m 
  326.00000m  326.0000m  928.0856m 
  327.00000m  327.0000m  926.6334m 
  328.00000m  328.0000m  925.1513m 
  329.00000m  329.0000m  923.6385m 
  330.00000m  330.0000m  922.0943m 
  331.00000m  331.0000m  920.5178m 
  332.00000m  332.0000m  918.9081m 
  333.00000m  333.0000m  917.2644m 
  334.00000m  334.0000m  915.5856m 
  335.00000m  335.0000m  913.8708m 
  336.00000m  336.0000m  912.1189m 
  337.00000m  337.0000m  910.3288m 
  338.00000m  338.0000m  908.4994m 
  339.00000m  339.0000m  906.6294m 
  340.00000m  340.0000m  904.7176m 
  341.00000m  341.0000m  902.7627m 
  342.00000m  342.0000m  900.7632m 
  343.00000m  343.0000m  898.7176m 
  344.00000m  344.0000m  896.6244m 
  345.00000m  345.0000m  894.4819m 
  346.00000m  346.0000m  892.2886m 
  347.00000m  347.0000m  890.0424m 
  348.00000m  348.0000m  887.7414m 
  349.00000m  349.0000m  885.3834m 
  350.00000m  350.0000m  882.9663m 
  351.00000m  351.0000m  880.4875m 
  352.00000m  352.0000m  877.9446m 
  353.00000m  353.0000m  875.3347m 
  354.00000m  354.0000m  872.6548m 
  355.00000m  355.0000m  869.9017m 
  356.00000m  356.0000m  867.0721m 
  357.00000m  357.0000m  864.1621m 
  358.00000m  358.0000m  861.1676m 
  359.00000m  359.0000m  858.0844m 
  360.00000m  360.0000m  854.9076m 
  361.00000m  361.0000m  851.6321m 
  362.00000m  362.0000m  848.2520m 
  363.00000m  363.0000m  844.7613m 
  364.00000m  364.0000m  841.1530m 
  365.00000m  365.0000m  837.4196m 
  366.00000m  366.0000m  833.5527m 
  367.00000m  367.0000m  829.5433m 
  368.00000m  368.0000m  825.3810m 
  369.00000m  369.0000m  821.0546m 
  370.00000m  370.0000m  816.5515m 
  371.00000m  371.0000m  811.8576m 
  372.00000m  372.0000m  806.9575m 
  373.00000m  373.0000m  801.8339m 
  374.00000m  374.0000m  796.4674m 
  375.00000m  375.0000m  790.8371m 
  376.00000m  376.0000m  784.9196m 
  377.00000m  377.0000m  778.6900m 
  378.00000m  378.0000m  772.1215m 
  379.00000m  379.0000m  765.1867m 
  380.00000m  380.0000m  757.8581m 
  381.00000m  381.0000m  750.1098m 
  382.00000m  382.0000m  741.9199m 
  383.00000m  383.0000m  733.2724m 
  384.00000m  384.0000m  724.1602m 
  385.00000m  385.0000m  714.5867m 
  386.00000m  386.0000m  704.5668m 
  387.00000m  387.0000m  694.1261m 
  388.00000m  388.0000m  683.2986m 
  389.00000m  389.0000m  672.1239m 
  390.00000m  390.0000m  660.6434m 
  391.00000m  391.0000m  648.8978m 
  392.00000m  392.0000m  636.9249m 
  393.00000m  393.0000m  624.7584m 
  394.00000m  394.0000m  612.4280m 
  395.00000m  395.0000m  599.9592m 
  396.00000m  396.0000m  587.3739m 
  397.00000m  397.0000m  574.6906m 
  398.00000m  398.0000m  561.9256m 
  399.00000m  399.0000m  549.0926m 
  400.00000m  400.0000m  536.2041m 
  401.00000m  401.0000m  523.2710m 
  402.00000m  402.0000m  510.3031m 
  403.00000m  403.0000m  497.3095m 
  404.00000m  404.0000m  484.2987m 
  405.00000m  405.0000m  471.2788m 
  406.00000m  406.0000m  458.2576m 
  407.00000m  407.0000m  445.2426m 
  408.00000m  408.0000m  432.2413m 
  409.00000m  409.0000m  419.2612m 
  410.00000m  410.0000m  406.3102m 
  411.00000m  411.0000m  393.3961m 
  412.00000m  412.0000m  380.5270m 
  413.00000m  413.0000m  367.7118m 
  414.00000m  414.0000m  354.9596m 
  415.00000m  415.0000m  342.2804m 
  416.00000m  416.0000m  329.6849m 
  417.00000m  417.0000m  317.1848m 
  418.00000m  418.0000m  304.7931m 
  419.00000m  419.0000m  292.5242m 
  420.00000m  420.0000m  280.3942m 
  421.00000m  421.0000m  268.4211m 
  422.00000m  422.0000m  256.6254m 
  423.00000m  423.0000m  245.0301m 
  424.00000m  424.0000m  233.6615m 
  425.00000m  425.0000m  222.5493m 
  426.00000m  426.0000m  211.7270m 
  427.00000m  427.0000m  201.2322m 
  428.00000m  428.0000m  191.1057m 
  429.00000m  429.0000m  181.3917m 
  430.00000m  430.0000m  172.1352m 
  431.00000m  431.0000m  163.3791m 
  432.00000m  432.0000m  155.1612m 
  433.00000m  433.0000m  147.5088m 
  434.00000m  434.0000m  140.4352m 
  435.00000m  435.0000m  133.9375m 
  436.00000m  436.0000m  127.9965m 
  437.00000m  437.0000m  122.5796m 
  438.00000m  438.0000m  117.6450m 
  439.00000m  439.0000m  113.1467m 
  440.00000m  440.0000m  109.0376m 
  441.00000m  441.0000m  105.2731m 
  442.00000m  442.0000m  101.8119m 
  443.00000m  443.0000m   98.6178m 
  444.00000m  444.0000m   95.6586m 
  445.00000m  445.0000m   92.9065m 
  446.00000m  446.0000m   90.3375m 
  447.00000m  447.0000m   87.9311m 
  448.00000m  448.0000m   85.6697m 
  449.00000m  449.0000m   83.5380m 
  450.00000m  450.0000m   81.5230m 
  451.00000m  451.0000m   79.6134m 
  452.00000m  452.0000m   77.7992m 
  453.00000m  453.0000m   76.0720m 
  454.00000m  454.0000m   74.4241m 
  455.00000m  455.0000m   72.8491m 
  456.00000m  456.0000m   71.3410m 
  457.00000m  457.0000m   69.8947m 
  458.00000m  458.0000m   68.5056m 
  459.00000m  459.0000m   67.1696m 
  460.00000m  460.0000m   65.8830m 
  461.00000m  461.0000m   64.6425m 
  462.00000m  462.0000m   63.4450m 
  463.00000m  463.0000m   62.2879m 
  464.00000m  464.0000m   61.1688m 
  465.00000m  465.0000m   60.0853m 
  466.00000m  466.0000m   59.0354m 
  467.00000m  467.0000m   58.0173m 
  468.00000m  468.0000m   57.0293m 
  469.00000m  469.0000m   56.0696m 
  470.00000m  470.0000m   55.1370m 
  471.00000m  471.0000m   54.2300m 
  472.00000m  472.0000m   53.3474m 
  473.00000m  473.0000m   52.4880m 
  474.00000m  474.0000m   51.6508m 
  475.00000m  475.0000m   50.8347m 
  476.00000m  476.0000m   50.0388m 
  477.00000m  477.0000m   49.2622m 
  478.00000m  478.0000m   48.5042m 
  479.00000m  479.0000m   47.7639m 
  480.00000m  480.0000m   47.0406m 
  481.00000m  481.0000m   46.3336m 
  482.00000m  482.0000m   45.6424m 
  483.00000m  483.0000m   44.9663m 
  484.00000m  484.0000m   44.3047m 
  485.00000m  485.0000m   43.6572m 
  486.00000m  486.0000m   43.0231m 
  487.00000m  487.0000m   42.4020m 
  488.00000m  488.0000m   41.7936m 
  489.00000m  489.0000m   41.1972m 
  490.00000m  490.0000m   40.6126m 
  491.00000m  491.0000m   40.0393m 
  492.00000m  492.0000m   39.4770m 
  493.00000m  493.0000m   38.9253m 
  494.00000m  494.0000m   38.3839m 
  495.00000m  495.0000m   37.8525m 
  496.00000m  496.0000m   37.3307m 
  497.00000m  497.0000m   36.8183m 
  498.00000m  498.0000m   36.3150m 
  499.00000m  499.0000m   35.8205m 
  500.00000m  500.0000m   35.3346m 
  501.00000m  501.0000m   34.8570m 
  502.00000m  502.0000m   34.3876m 
  503.00000m  503.0000m   33.9260m 
  504.00000m  504.0000m   33.4720m 
  505.00000m  505.0000m   33.0255m 
  506.00000m  506.0000m   32.5863m 
  507.00000m  507.0000m   32.1541m 
  508.00000m  508.0000m   31.7289m 
  509.00000m  509.0000m   31.3103m 
  510.00000m  510.0000m   30.8983m 
  511.00000m  511.0000m   30.4926m 
  512.00000m  512.0000m   30.0932m 
  513.00000m  513.0000m   29.6999m 
