 ****** HSPICE -- O-2018.09-SP2 win64 (Feb 25 2019) ******                      
  Copyright (c) 1986 - 2021 by Synopsys, Inc. All Rights Reserved.              
  This software and the associated documentation are proprietary
  to Synopsys, Inc. This software may only be used in accordance
  with the terms and conditions of a written license agreement with
  Synopsys, Inc. All other use, reproduction, or distribution of
  this software is strictly prohibited.
  Input File: inverter.sp                                                       
  Command line options: C:\synopsys\Hspice_O-2018.09-SP2\WIN64\hspice.com -i inverter.sp -o C:\sdsy\case2\inverter.lis
  Start time: Wed Nov  3 12:56:22 2021
  lic:  
  lic: FLEXlm: SDK_11.7.3 
  lic: USER:   admin                HOSTNAME: DESKTOP-3KO7170 
  lic: HOSTID: "d83bbfb49802"       PID:      53820 
  lic: Using FLEXlm license file: 
  lic: 27000@DESKTOP-3KO7170 
  lic: Checkout 1 hspice 
  lic: License/Maintenance for hspice will expire on 30-dec-2029/2019.2019 
  lic: 1(in_use)/99(total) FLOATING license(s) on SERVER 27000@DESKTOP-3KO7170 
  lic:   
  
      

Element variations(Local):   element              parameter
 *****************************************************************
 ******  option summary
 ******
 runlvl  = 3         bypass  = 2.0000    
 ******
 

 ****** dc transfer curves tnom=  25.000 temp=  25.000 ******
x

 volt         voltage    voltage   
             vin        vout       
    0.          0.       999.9653m 
    1.00000m    1.0000m  999.9644m 
    2.00000m    2.0000m  999.9636m 
    3.00000m    3.0000m  999.9627m 
    4.00000m    4.0000m  999.9617m 
    5.00000m    5.0000m  999.9608m 
    6.00000m    6.0000m  999.9598m 
    7.00000m    7.0000m  999.9588m 
    8.00000m    8.0000m  999.9577m 
    9.00000m    9.0000m  999.9566m 
   10.00000m   10.0000m  999.9555m 
   11.00000m   11.0000m  999.9544m 
   12.00000m   12.0000m  999.9532m 
   13.00000m   13.0000m  999.9519m 
   14.00000m   14.0000m  999.9507m 
   15.00000m   15.0000m  999.9494m 
   16.00000m   16.0000m  999.9480m 
   17.00000m   17.0000m  999.9466m 
   18.00000m   18.0000m  999.9452m 
   19.00000m   19.0000m  999.9437m 
   20.00000m   20.0000m  999.9422m 
   21.00000m   21.0000m  999.9406m 
   22.00000m   22.0000m  999.9390m 
   23.00000m   23.0000m  999.9374m 
   24.00000m   24.0000m  999.9356m 
   25.00000m   25.0000m  999.9339m 
   26.00000m   26.0000m  999.9320m 
   27.00000m   27.0000m  999.9302m 
   28.00000m   28.0000m  999.9282m 
   29.00000m   29.0000m  999.9262m 
   30.00000m   30.0000m  999.9242m 
   31.00000m   31.0000m  999.9221m 
   32.00000m   32.0000m  999.9199m 
   33.00000m   33.0000m  999.9176m 
   34.00000m   34.0000m  999.9153m 
   35.00000m   35.0000m  999.9129m 
   36.00000m   36.0000m  999.9105m 
   37.00000m   37.0000m  999.9079m 
   38.00000m   38.0000m  999.9053m 
   39.00000m   39.0000m  999.9026m 
   40.00000m   40.0000m  999.8999m 
   41.00000m   41.0000m  999.8970m 
   42.00000m   42.0000m  999.8941m 
   43.00000m   43.0000m  999.8910m 
   44.00000m   44.0000m  999.8879m 
   45.00000m   45.0000m  999.8847m 
   46.00000m   46.0000m  999.8814m 
   47.00000m   47.0000m  999.8780m 
   48.00000m   48.0000m  999.8745m 
   49.00000m   49.0000m  999.8709m 
   50.00000m   50.0000m  999.8672m 
   51.00000m   51.0000m  999.8633m 
   52.00000m   52.0000m  999.8594m 
   53.00000m   53.0000m  999.8553m 
   54.00000m   54.0000m  999.8512m 
   55.00000m   55.0000m  999.8469m 
   56.00000m   56.0000m  999.8424m 
   57.00000m   57.0000m  999.8379m 
   58.00000m   58.0000m  999.8332m 
   59.00000m   59.0000m  999.8283m 
   60.00000m   60.0000m  999.8234m 
   61.00000m   61.0000m  999.8183m 
   62.00000m   62.0000m  999.8130m 
   63.00000m   63.0000m  999.8076m 
   64.00000m   64.0000m  999.8020m 
   65.00000m   65.0000m  999.7962m 
   66.00000m   66.0000m  999.7903m 
   67.00000m   67.0000m  999.7842m 
   68.00000m   68.0000m  999.7780m 
   69.00000m   69.0000m  999.7715m 
   70.00000m   70.0000m  999.7649m 
   71.00000m   71.0000m  999.7581m 
   72.00000m   72.0000m  999.7511m 
   73.00000m   73.0000m  999.7439m 
   74.00000m   74.0000m  999.7364m 
   75.00000m   75.0000m  999.7288m 
   76.00000m   76.0000m  999.7209m 
   77.00000m   77.0000m  999.7128m 
   78.00000m   78.0000m  999.7045m 
   79.00000m   79.0000m  999.6960m 
   80.00000m   80.0000m  999.6872m 
   81.00000m   81.0000m  999.6781m 
   82.00000m   82.0000m  999.6688m 
   83.00000m   83.0000m  999.6592m 
   84.00000m   84.0000m  999.6494m 
   85.00000m   85.0000m  999.6393m 
   86.00000m   86.0000m  999.6289m 
   87.00000m   87.0000m  999.6182m 
   88.00000m   88.0000m  999.6072m 
   89.00000m   89.0000m  999.5958m 
   90.00000m   90.0000m  999.5842m 
   91.00000m   91.0000m  999.5722m 
   92.00000m   92.0000m  999.5599m 
   93.00000m   93.0000m  999.5473m 
   94.00000m   94.0000m  999.5343m 
   95.00000m   95.0000m  999.5210m 
   96.00000m   96.0000m  999.5072m 
   97.00000m   97.0000m  999.4931m 
   98.00000m   98.0000m  999.4786m 
   99.00000m   99.0000m  999.4637m 
  100.00000m  100.0000m  999.4484m 
  101.00000m  101.0000m  999.4327m 
  102.00000m  102.0000m  999.4165m 
  103.00000m  103.0000m  999.3999m 
  104.00000m  104.0000m  999.3828m 
  105.00000m  105.0000m  999.3652m 
  106.00000m  106.0000m  999.3472m 
  107.00000m  107.0000m  999.3287m 
  108.00000m  108.0000m  999.3097m 
  109.00000m  109.0000m  999.2902m 
  110.00000m  110.0000m  999.2701m 
  111.00000m  111.0000m  999.2495m 
  112.00000m  112.0000m  999.2283m 
  113.00000m  113.0000m  999.2066m 
  114.00000m  114.0000m  999.1843m 
  115.00000m  115.0000m  999.1613m 
  116.00000m  116.0000m  999.1378m 
  117.00000m  117.0000m  999.1136m 
  118.00000m  118.0000m  999.0888m 
  119.00000m  119.0000m  999.0633m 
  120.00000m  120.0000m  999.0372m 
  121.00000m  121.0000m  999.0103m 
  122.00000m  122.0000m  998.9828m 
  123.00000m  123.0000m  998.9545m 
  124.00000m  124.0000m  998.9255m 
  125.00000m  125.0000m  998.8957m 
  126.00000m  126.0000m  998.8651m 
  127.00000m  127.0000m  998.8337m 
  128.00000m  128.0000m  998.8015m 
  129.00000m  129.0000m  998.7684m 
  130.00000m  130.0000m  998.7345m 
  131.00000m  131.0000m  998.6998m 
  132.00000m  132.0000m  998.6641m 
  133.00000m  133.0000m  998.6275m 
  134.00000m  134.0000m  998.5899m 
  135.00000m  135.0000m  998.5514m 
  136.00000m  136.0000m  998.5119m 
  137.00000m  137.0000m  998.4714m 
  138.00000m  138.0000m  998.4298m 
  139.00000m  139.0000m  998.3872m 
  140.00000m  140.0000m  998.3435m 
  141.00000m  141.0000m  998.2988m 
  142.00000m  142.0000m  998.2528m 
  143.00000m  143.0000m  998.2057m 
  144.00000m  144.0000m  998.1575m 
  145.00000m  145.0000m  998.1080m 
  146.00000m  146.0000m  998.0573m 
  147.00000m  147.0000m  998.0053m 
  148.00000m  148.0000m  997.9520m 
  149.00000m  149.0000m  997.8974m 
  150.00000m  150.0000m  997.8414m 
  151.00000m  151.0000m  997.7841m 
  152.00000m  152.0000m  997.7254m 
  153.00000m  153.0000m  997.6652m 
  154.00000m  154.0000m  997.6035m 
  155.00000m  155.0000m  997.5403m 
  156.00000m  156.0000m  997.4756m 
  157.00000m  157.0000m  997.4093m 
  158.00000m  158.0000m  997.3415m 
  159.00000m  159.0000m  997.2719m 
  160.00000m  160.0000m  997.2007m 
  161.00000m  161.0000m  997.1278m 
  162.00000m  162.0000m  997.0532m 
  163.00000m  163.0000m  996.9767m 
  164.00000m  164.0000m  996.8985m 
  165.00000m  165.0000m  996.8184m 
  166.00000m  166.0000m  996.7364m 
  167.00000m  167.0000m  996.6524m 
  168.00000m  168.0000m  996.5665m 
  169.00000m  169.0000m  996.4786m 
  170.00000m  170.0000m  996.3886m 
  171.00000m  171.0000m  996.2965m 
  172.00000m  172.0000m  996.2023m 
  173.00000m  173.0000m  996.1059m 
  174.00000m  174.0000m  996.0073m 
  175.00000m  175.0000m  995.9064m 
  176.00000m  176.0000m  995.8032m 
  177.00000m  177.0000m  995.6976m 
  178.00000m  178.0000m  995.5896m 
  179.00000m  179.0000m  995.4792m 
  180.00000m  180.0000m  995.3662m 
  181.00000m  181.0000m  995.2507m 
  182.00000m  182.0000m  995.1327m 
  183.00000m  183.0000m  995.0119m 
  184.00000m  184.0000m  994.8885m 
  185.00000m  185.0000m  994.7623m 
  186.00000m  186.0000m  994.6333m 
  187.00000m  187.0000m  994.5014m 
  188.00000m  188.0000m  994.3667m 
  189.00000m  189.0000m  994.2289m 
  190.00000m  190.0000m  994.0882m 
  191.00000m  191.0000m  993.9444m 
  192.00000m  192.0000m  993.7974m 
  193.00000m  193.0000m  993.6473m 
  194.00000m  194.0000m  993.4939m 
  195.00000m  195.0000m  993.3372m 
  196.00000m  196.0000m  993.1771m 
  197.00000m  197.0000m  993.0136m 
  198.00000m  198.0000m  992.8467m 
  199.00000m  199.0000m  992.6761m 
  200.00000m  200.0000m  992.5020m 
  201.00000m  201.0000m  992.3242m 
  202.00000m  202.0000m  992.1426m 
  203.00000m  203.0000m  991.9572m 
  204.00000m  204.0000m  991.7680m 
  205.00000m  205.0000m  991.5748m 
  206.00000m  206.0000m  991.3776m 
  207.00000m  207.0000m  991.1763m 
  208.00000m  208.0000m  990.9709m 
  209.00000m  209.0000m  990.7613m 
  210.00000m  210.0000m  990.5474m 
  211.00000m  211.0000m  990.3291m 
  212.00000m  212.0000m  990.1064m 
  213.00000m  213.0000m  989.8792m 
  214.00000m  214.0000m  989.6474m 
  215.00000m  215.0000m  989.4110m 
  216.00000m  216.0000m  989.1698m 
  217.00000m  217.0000m  988.9238m 
  218.00000m  218.0000m  988.6730m 
  219.00000m  219.0000m  988.4171m 
  220.00000m  220.0000m  988.1563m 
  221.00000m  221.0000m  987.8903m 
  222.00000m  222.0000m  987.6191m 
  223.00000m  223.0000m  987.3426m 
  224.00000m  224.0000m  987.0607m 
  225.00000m  225.0000m  986.7734m 
  226.00000m  226.0000m  986.4806m 
  227.00000m  227.0000m  986.1821m 
  228.00000m  228.0000m  985.8779m 
  229.00000m  229.0000m  985.5680m 
  230.00000m  230.0000m  985.2521m 
  231.00000m  231.0000m  984.9303m 
  232.00000m  232.0000m  984.6024m 
  233.00000m  233.0000m  984.2684m 
  234.00000m  234.0000m  983.9281m 
  235.00000m  235.0000m  983.5815m 
  236.00000m  236.0000m  983.2284m 
  237.00000m  237.0000m  982.8689m 
  238.00000m  238.0000m  982.5027m 
  239.00000m  239.0000m  982.1298m 
  240.00000m  240.0000m  981.7502m 
  241.00000m  241.0000m  981.3636m 
  242.00000m  242.0000m  980.9700m 
  243.00000m  243.0000m  980.5693m 
  244.00000m  244.0000m  980.1614m 
  245.00000m  245.0000m  979.7462m 
  246.00000m  246.0000m  979.3237m 
  247.00000m  247.0000m  978.8936m 
  248.00000m  248.0000m  978.4559m 
  249.00000m  249.0000m  978.0106m 
  250.00000m  250.0000m  977.5574m 
  251.00000m  251.0000m  977.0963m 
  252.00000m  252.0000m  976.6273m 
  253.00000m  253.0000m  976.1501m 
  254.00000m  254.0000m  975.6646m 
  255.00000m  255.0000m  975.1709m 
  256.00000m  256.0000m  974.6687m 
  257.00000m  257.0000m  974.1580m 
  258.00000m  258.0000m  973.6386m 
  259.00000m  259.0000m  973.1104m 
  260.00000m  260.0000m  972.5734m 
  261.00000m  261.0000m  972.0274m 
  262.00000m  262.0000m  971.4724m 
  263.00000m  263.0000m  970.9081m 
  264.00000m  264.0000m  970.3345m 
  265.00000m  265.0000m  969.7515m 
  266.00000m  266.0000m  969.1590m 
  267.00000m  267.0000m  968.5568m 
  268.00000m  268.0000m  967.9449m 
  269.00000m  269.0000m  967.3230m 
  270.00000m  270.0000m  966.6912m 
  271.00000m  271.0000m  966.0494m 
  272.00000m  272.0000m  965.3972m 
  273.00000m  273.0000m  964.7348m 
  274.00000m  274.0000m  964.0619m 
  275.00000m  275.0000m  963.3785m 
  276.00000m  276.0000m  962.6844m 
  277.00000m  277.0000m  961.9796m 
  278.00000m  278.0000m  961.2638m 
  279.00000m  279.0000m  960.5370m 
  280.00000m  280.0000m  959.7991m 
  281.00000m  281.0000m  959.0499m 
  282.00000m  282.0000m  958.2894m 
  283.00000m  283.0000m  957.5174m 
  284.00000m  284.0000m  956.7338m 
  285.00000m  285.0000m  955.9385m 
  286.00000m  286.0000m  955.1315m 
  287.00000m  287.0000m  954.3124m 
  288.00000m  288.0000m  953.4814m 
  289.00000m  289.0000m  952.6381m 
  290.00000m  290.0000m  951.7827m 
  291.00000m  291.0000m  950.9148m 
  292.00000m  292.0000m  950.0344m 
  293.00000m  293.0000m  949.1414m 
  294.00000m  294.0000m  948.2357m 
  295.00000m  295.0000m  947.3172m 
  296.00000m  296.0000m  946.3858m 
  297.00000m  297.0000m  945.4413m 
  298.00000m  298.0000m  944.4836m 
  299.00000m  299.0000m  943.5127m 
  300.00000m  300.0000m  942.5284m 
  301.00000m  301.0000m  941.5306m 
  302.00000m  302.0000m  940.5192m 
  303.00000m  303.0000m  939.4942m 
  304.00000m  304.0000m  938.4553m 
  305.00000m  305.0000m  937.4026m 
  306.00000m  306.0000m  936.3358m 
  307.00000m  307.0000m  935.2550m 
  308.00000m  308.0000m  934.1600m 
  309.00000m  309.0000m  933.0506m 
  310.00000m  310.0000m  931.9269m 
  311.00000m  311.0000m  930.7887m 
  312.00000m  312.0000m  929.6359m 
  313.00000m  313.0000m  928.4685m 
  314.00000m  314.0000m  927.2862m 
  315.00000m  315.0000m  926.0891m 
  316.00000m  316.0000m  924.8771m 
  317.00000m  317.0000m  923.6500m 
  318.00000m  318.0000m  922.4078m 
  319.00000m  319.0000m  921.1505m 
  320.00000m  320.0000m  919.8778m 
  321.00000m  321.0000m  918.5897m 
  322.00000m  322.0000m  917.2863m 
  323.00000m  323.0000m  915.9673m 
  324.00000m  324.0000m  914.6327m 
  325.00000m  325.0000m  913.2824m 
  326.00000m  326.0000m  911.9164m 
  327.00000m  327.0000m  910.5346m 
  328.00000m  328.0000m  909.1369m 
  329.00000m  329.0000m  907.7233m 
  330.00000m  330.0000m  906.2937m 
  331.00000m  331.0000m  904.8480m 
  332.00000m  332.0000m  903.3862m 
  333.00000m  333.0000m  901.9083m 
  334.00000m  334.0000m  900.4141m 
  335.00000m  335.0000m  898.9036m 
  336.00000m  336.0000m  897.3768m 
  337.00000m  337.0000m  895.8336m 
  338.00000m  338.0000m  894.2740m 
  339.00000m  339.0000m  892.6980m 
  340.00000m  340.0000m  891.1054m 
  341.00000m  341.0000m  889.4963m 
  342.00000m  342.0000m  887.8707m 
  343.00000m  343.0000m  886.2284m 
  344.00000m  344.0000m  884.5695m 
  345.00000m  345.0000m  882.8941m 
  346.00000m  346.0000m  881.2021m 
  347.00000m  347.0000m  879.4936m 
  348.00000m  348.0000m  877.7684m 
  349.00000m  349.0000m  876.0267m 
  350.00000m  350.0000m  874.2683m 
  351.00000m  351.0000m  872.4934m 
  352.00000m  352.0000m  870.7018m 
  353.00000m  353.0000m  868.8936m 
  354.00000m  354.0000m  867.0688m 
  355.00000m  355.0000m  865.2273m 
  356.00000m  356.0000m  863.3693m 
  357.00000m  357.0000m  861.4947m 
  358.00000m  358.0000m  859.6034m 
  359.00000m  359.0000m  857.6957m 
  360.00000m  360.0000m  855.7713m 
  361.00000m  361.0000m  853.8305m 
  362.00000m  362.0000m  851.8731m 
  363.00000m  363.0000m  849.8993m 
  364.00000m  364.0000m  847.9090m 
  365.00000m  365.0000m  845.9024m 
  366.00000m  366.0000m  843.8793m 
  367.00000m  367.0000m  841.8399m 
  368.00000m  368.0000m  839.7843m 
  369.00000m  369.0000m  837.7123m 
  370.00000m  370.0000m  835.6242m 
  371.00000m  371.0000m  833.5199m 
  372.00000m  372.0000m  831.3996m 
  373.00000m  373.0000m  829.2631m 
  374.00000m  374.0000m  827.1107m 
  375.00000m  375.0000m  824.9424m 
  376.00000m  376.0000m  822.7582m 
  377.00000m  377.0000m  820.5582m 
  378.00000m  378.0000m  818.3425m 
  379.00000m  379.0000m  816.1111m 
  380.00000m  380.0000m  813.8641m 
  381.00000m  381.0000m  811.6016m 
  382.00000m  382.0000m  809.3237m 
  383.00000m  383.0000m  807.0305m 
  384.00000m  384.0000m  804.7219m 
  385.00000m  385.0000m  802.3982m 
  386.00000m  386.0000m  800.0594m 
  387.00000m  387.0000m  797.7056m 
  388.00000m  388.0000m  795.3369m 
  389.00000m  389.0000m  792.9534m 
  390.00000m  390.0000m  790.5552m 
  391.00000m  391.0000m  788.1423m 
  392.00000m  392.0000m  785.7149m 
  393.00000m  393.0000m  783.2732m 
  394.00000m  394.0000m  780.8171m 
  395.00000m  395.0000m  778.3468m 
  396.00000m  396.0000m  775.8624m 
  397.00000m  397.0000m  773.3640m 
  398.00000m  398.0000m  770.8518m 
  399.00000m  399.0000m  768.3258m 
  400.00000m  400.0000m  765.7862m 
  401.00000m  401.0000m  763.2331m 
  402.00000m  402.0000m  760.6666m 
  403.00000m  403.0000m  758.0868m 
  404.00000m  404.0000m  755.4939m 
  405.00000m  405.0000m  752.8879m 
  406.00000m  406.0000m  750.2691m 
  407.00000m  407.0000m  747.6375m 
  408.00000m  408.0000m  744.9932m 
  409.00000m  409.0000m  742.3365m 
  410.00000m  410.0000m  739.6674m 
  411.00000m  411.0000m  736.9860m 
  412.00000m  412.0000m  734.2926m 
  413.00000m  413.0000m  731.5872m 
  414.00000m  414.0000m  728.8699m 
  415.00000m  415.0000m  726.1410m 
  416.00000m  416.0000m  723.4005m 
  417.00000m  417.0000m  720.6486m 
  418.00000m  418.0000m  717.8855m 
  419.00000m  419.0000m  715.1113m 
  420.00000m  420.0000m  712.3260m 
  421.00000m  421.0000m  709.5300m 
  422.00000m  422.0000m  706.7232m 
  423.00000m  423.0000m  703.9059m 
  424.00000m  424.0000m  701.0783m 
  425.00000m  425.0000m  698.2404m 
  426.00000m  426.0000m  695.3924m 
  427.00000m  427.0000m  692.5344m 
  428.00000m  428.0000m  689.6667m 
  429.00000m  429.0000m  686.7893m 
  430.00000m  430.0000m  683.9025m 
  431.00000m  431.0000m  681.0063m 
  432.00000m  432.0000m  678.1009m 
  433.00000m  433.0000m  675.1865m 
  434.00000m  434.0000m  672.2633m 
  435.00000m  435.0000m  669.3313m 
  436.00000m  436.0000m  666.3907m 
  437.00000m  437.0000m  663.4418m 
  438.00000m  438.0000m  660.4845m 
  439.00000m  439.0000m  657.5192m 
  440.00000m  440.0000m  654.5459m 
  441.00000m  441.0000m  651.5649m 
  442.00000m  442.0000m  648.5762m 
  443.00000m  443.0000m  645.5800m 
  444.00000m  444.0000m  642.5765m 
  445.00000m  445.0000m  639.5659m 
  446.00000m  446.0000m  636.5482m 
  447.00000m  447.0000m  633.5237m 
  448.00000m  448.0000m  630.4925m 
  449.00000m  449.0000m  627.4548m 
  450.00000m  450.0000m  624.4107m 
  451.00000m  451.0000m  621.3604m 
  452.00000m  452.0000m  618.3040m 
  453.00000m  453.0000m  615.2417m 
  454.00000m  454.0000m  612.1736m 
  455.00000m  455.0000m  609.1000m 
  456.00000m  456.0000m  606.0209m 
  457.00000m  457.0000m  602.9366m 
  458.00000m  458.0000m  599.8471m 
  459.00000m  459.0000m  596.7527m 
  460.00000m  460.0000m  593.6535m 
  461.00000m  461.0000m  590.5496m 
  462.00000m  462.0000m  587.4412m 
  463.00000m  463.0000m  584.3285m 
  464.00000m  464.0000m  581.2117m 
  465.00000m  465.0000m  578.0908m 
  466.00000m  466.0000m  574.9660m 
  467.00000m  467.0000m  571.8376m 
  468.00000m  468.0000m  568.7056m 
  469.00000m  469.0000m  565.5702m 
  470.00000m  470.0000m  562.4316m 
  471.00000m  471.0000m  559.2899m 
  472.00000m  472.0000m  556.1453m 
  473.00000m  473.0000m  552.9980m 
  474.00000m  474.0000m  549.8480m 
  475.00000m  475.0000m  546.6956m 
  476.00000m  476.0000m  543.5409m 
  477.00000m  477.0000m  540.3841m 
  478.00000m  478.0000m  537.2253m 
  479.00000m  479.0000m  534.0646m 
  480.00000m  480.0000m  530.9024m 
  481.00000m  481.0000m  527.7386m 
  482.00000m  482.0000m  524.5735m 
  483.00000m  483.0000m  521.4072m 
  484.00000m  484.0000m  518.2400m 
  485.00000m  485.0000m  515.0718m 
  486.00000m  486.0000m  511.9030m 
  487.00000m  487.0000m  508.7336m 
  488.00000m  488.0000m  505.5638m 
  489.00000m  489.0000m  502.3938m 
  490.00000m  490.0000m  499.2238m 
  491.00000m  491.0000m  496.0539m 
  492.00000m  492.0000m  492.8842m 
  493.00000m  493.0000m  489.7150m 
  494.00000m  494.0000m  486.5464m 
  495.00000m  495.0000m  483.3785m 
  496.00000m  496.0000m  480.2116m 
  497.00000m  497.0000m  477.0458m 
  498.00000m  498.0000m  473.8813m 
  499.00000m  499.0000m  470.7182m 
  500.00000m  500.0000m  467.5567m 
  501.00000m  501.0000m  464.3970m 
  502.00000m  502.0000m  461.2393m 
  503.00000m  503.0000m  458.0837m 
  504.00000m  504.0000m  454.9304m 
  505.00000m  505.0000m  451.7796m 
  506.00000m  506.0000m  448.6315m 
  507.00000m  507.0000m  445.4862m 
  508.00000m  508.0000m  442.3440m 
  509.00000m  509.0000m  439.2049m 
  510.00000m  510.0000m  436.0693m 
  511.00000m  511.0000m  432.9373m 
  512.00000m  512.0000m  429.8091m 
  513.00000m  513.0000m  426.6848m 
