 ****** HSPICE -- O-2018.09-SP2 win64 (Feb 25 2019) ******                      
  Copyright (c) 1986 - 2021 by Synopsys, Inc. All Rights Reserved.              
  This software and the associated documentation are proprietary
  to Synopsys, Inc. This software may only be used in accordance
  with the terms and conditions of a written license agreement with
  Synopsys, Inc. All other use, reproduction, or distribution of
  this software is strictly prohibited.
  Input File: cascode_amplifier_c.sp                                            
  Command line options: C:\synopsys\Hspice_O-2018.09-SP2\WIN64\hspice.com -i cascode_amplifier_c.sp -o C:\mdsy\proj1\cascode_amplifier_c.lis
  Start time: Thu Dec  2 23:41:02 2021
  lic:  
  lic: FLEXlm: SDK_11.7.3 
  lic: USER:   admin                HOSTNAME: DESKTOP-3KO7170 
  lic: HOSTID: "d83bbfb49802"       PID:      8448 
  lic: Using FLEXlm license file: 
  lic: 27000@DESKTOP-3KO7170 
  lic: Checkout 1 hspice 
  lic: License/Maintenance for hspice will expire on 30-dec-2029/2019.2019 
  lic: 1(in_use)/99(total) FLOATING license(s) on SERVER 27000@DESKTOP-3KO7170 
  lic:   
 

  
      

Element variations(Local):   element              parameter
 **info** set option symb=1 internally to help for convergence.
 *****************************************************************
 ******  option summary
 ******
 runlvl  = 3         bypass  = 2.0000    
 **info** dc convergence successful at Newton-Raphson method 
1****** HSPICE -- O-2018.09-SP2 win64 (Feb 25 2019) ******                      
 ******  
 

 ****** operating point information tnom=  25.000 temp=  25.000 ******
 ****** operating point status is all       simulation time is     0.     
    node    =voltage      node    =voltage      node    =voltage

 +0:vb1     = 850.2462m 0:vb2     = 842.7342m 0:vb3     =   1.1117 
 +0:vb4     = 625.3065m 0:vdd     =   1.8000  0:vin     =   1.1517 
 +0:vm10s   =   1.5852  0:vm13s   =   1.5808  0:vm15d   = 186.4374m
 +0:vm17s   =   1.5779  0:vm2d    = 595.3274m 0:vm5d    = 192.8536m
 +0:vm7s    =   1.5831  0:vout    =   1.0000 


 **** voltage sources

 subckt                                   
 element  0:vdd      0:vin      0:vout    
  volts      1.8000     1.1517     1.0000 
  current -933.1848u    0.      -416.5136n
  power      1.6797m    0.       416.5136n

     total voltage source power dissipation=    1.6801m       watts



 **** current sources

 subckt             
 element  0:i1      
  volts      1.2047 
  current  130.0000u
  power   -156.6074u


     total current source power dissipation=-156.6074u       watts


 **** mosfets


 subckt                                                                    
 element  0:m2       0:m4       0:m6       0:m8       0:m10      0:m11     
 model    0:nch.3    0:nch.3    0:pch.8    0:nch.3    0:pch.4    0:pch.4   
 region   Saturation Saturation Saturation Saturation Saturation Saturation
  id       130.0000u  131.5121u -131.5121u  132.9480u -132.9483u -132.9483u
  ibs     -2.117e-20 -2.141e-20  2.018e-20 -2.165e-20   50.9481a  1.898e-20
  ibd     -204.2222a   -1.9661p   11.8826a -311.0809p   51.4199a   51.0323a
  vgs      595.3274m  595.3274m -957.2658m  595.3274m -742.4926m -688.2832m
  vds      595.3274m  842.7342m -957.2658m    1.1117  -473.5100m -214.7732m
  vbs        0.         0.         0.         0.       214.7732m    0.     
  vth      483.2954m  483.2384m -486.6602m  483.1764m -556.0807m -488.9843m
  vdsat    156.6250m  156.6683m -367.7348m  156.7154m -185.9220m -190.9002m
  vod      112.0321m  112.0891m -470.6055m  112.1511m -186.4119m -199.2989m
  beta      13.3517m   13.3518m    1.2747m   13.3520m    6.6856m    6.8492m
  gam eff  511.7809m  511.7809m  608.0220m  511.7808m  599.3569m  601.1098m
  gm         1.5468m    1.5612m  463.5180u    1.5734m    1.1420m    1.0214m
  gds        6.8570u    5.6107u   16.1250u    5.1379u   35.4576u  141.9651u
  gmb      441.6620u  445.7438u  158.3211u  449.2043u  348.4481u  345.0110u
  cdtot     36.1141f   34.5981f    4.8110f   33.3348f   24.5942f   28.3626f
  cgtot    195.3641f  195.2723f    8.8257f  195.2455f   42.5523f   43.0828f
  cstot    236.1322f  236.2061f   12.5748f  236.2461f   58.0083f   60.7016f
  cbtot    117.6033f  116.1567f   10.0610f  114.9134f   47.3986f   53.0288f
  cgs      163.4941f  163.4138f    7.2604f  163.3882f   34.3913f   34.5267f
  cgd       11.7585f   11.7187f    1.3001f   11.7072f    6.5067f    6.8845f



 subckt                                                                    
 element  0:m12      0:m13      0:m14      0:m15      0:m16      0:m17     
 model    0:nch.8    0:pch.4    0:pch.4    0:nch.8    0:nch.8    0:pch.4   
 region   Saturation Saturation Saturation Saturation Saturation Saturation
  id       133.5615u -133.5615u -133.5615u  133.9417u  133.9417u -133.9417u
  ibs     -2.656e-20   50.9500a  1.907e-20 -2.257e-20  -25.4620a   50.9510a
  ibd     -243.5854f   51.8273a   51.0394a  -25.4697a  -25.5129a  187.2801a
  vgs      850.2462m -738.0533m -688.2832m  625.3065m  663.8088m -735.1765m
  vds      850.2462m -730.5414m -219.2125m  186.4374m  438.8691m -952.6043m
  vbs        0.       219.2125m    0.         0.      -186.4374m  222.0892m
  vth      513.0624m -556.5176m -488.9735m  503.2063m  553.3045m -556.6004m
  vdsat    238.3276m -182.5502m -190.9071m  126.3471m  122.5567m -180.4964m
  vod      337.1837m -181.5357m -199.3097m  122.1002m  110.5043m -178.5761m
  beta       2.9920m    6.6896m    6.8492m   16.3835m   16.2584m    6.6924m
  gam eff  785.9254m  599.3226m  601.1098m  742.7498m  752.5891m  599.3004m
  gm       573.0189u    1.1745m    1.0304m    1.3800m    1.4888m    1.1899m
  gds       16.5046u   23.8136u  134.4497u  133.6248u   40.1702u   19.9689u
  gmb      164.3310u  355.9027u  347.9030u  391.7570u  376.5201u  358.6871u
  cdtot      1.8576f   23.4806f   28.2551f   10.2538f    9.0726f   22.7136f
  cgtot      3.5734f   42.4678f   43.0644f   17.1795f   16.9049f   42.4227f
  cstot      4.7545f   57.8829f   60.6999f   22.1304f   21.1268f   57.7899f
  cbtot      3.7532f   46.2836f   52.9900f   18.7304f   16.8346f   45.4944f
  cgs        2.7370f   34.2740f   34.5278f   12.7966f   12.6082f   34.1961f
  cgd      582.1569a    6.4885f    6.8588f    3.0147f    2.9147f    6.4851f



 subckt                                                                    
 element  0:m18      0:m5       0:m3       0:m7       0:m9       0:m1      
 model    0:pch.4    0:nch.4    0:nch.8    0:pch.4    0:pch.4    0:pch.4   
 region   Saturation Saturation Saturation Saturation Saturation Saturation
  id      -133.9417u  271.6377u  133.6623u -133.2457u -133.2457u -137.9751u
  ibs      1.912e-20 -4.474e-20  -25.4660a   50.9490a  1.903e-20  1.982e-20
  ibd       51.0439a  -49.7894a   -2.0841p   51.5930a   51.0357a  245.3554p
  vgs     -688.2832m  625.3065m  657.3925m -740.3696m -688.2832m -648.3000m
  vds     -222.0892m  192.8536m  807.1464m -583.1038m -216.8962m   -1.6071 
  vbs        0.         0.      -192.8536m  216.8962m    0.         0.     
  vth     -488.9665m  502.6492m  553.9184m -556.3374m -488.9791m -504.4610m
  vdsat   -190.9115m  126.5140m  118.8726m -184.2780m -190.9035m -149.2619m
  vod     -199.3167m  122.6573m  103.4741m -184.0322m -199.3041m -143.8390m
  beta       6.8492m   32.8684m   16.2769m    6.6874m    6.8492m    8.4212m
  gam eff  601.1098m  740.5981m  752.9118m  599.3405m  601.1098m  676.1708m
  gm         1.0359m    2.7975m    1.5154m    1.1590m    1.0258m    1.3908m
  gds      129.9416u  252.7216u   27.5393u   28.7767u  138.2836u   20.3949u
  gmb      349.6805u  792.7447u  378.6297u  352.5391u  346.4172u  452.4387u
  cdtot     28.1889f   20.2685f    8.5529f   24.0785f   28.3103f   16.1818f
  cgtot     43.0532f   34.3518f   16.7967f   42.5084f   43.0738f   25.0304f
  cstot     60.6989f   44.1140f   20.9658f   57.9514f   60.7007f   37.7789f
  cbtot     52.9653f   37.0769f   16.2987f   46.8905f   53.0102f   33.5303f
  cgs       34.5283f   25.6203f   12.4615f   34.3354f   34.5273f   18.7805f
  cgd        6.8433f    6.0133f    2.9096f    6.4948f    6.8719f    4.8686f



 **info** dc convergence successful at Newton-Raphson method 
 ******  
 

 ****** ac analysis tnom=  25.000 temp=  25.000 ******
 ****** operating point status is all       simulation time is     0.     

   *** parameter vbias =    0.000E+00 ***

    node    =voltage      node    =voltage      node    =voltage

 +0:vb1     = 850.2462m 0:vb2     = 842.7342m 0:vb3     =   1.1117 
 +0:vb4     = 625.3065m 0:vdd     =   1.8000  0:vin     =   1.1517 
 +0:vm10s   =   1.5852  0:vm13s   =   1.5808  0:vm15d   = 186.4374m
 +0:vm17s   =   1.5779  0:vm2d    = 595.3274m 0:vm5d    =  17.9431m
 +0:vm7s    =   1.5715  0:vout    =   0.     


 **** voltage sources

 subckt                                   
 element  0:vdd      0:vin      0:vout    
  volts      1.8000     1.1517     0.     
  current -938.2277u    0.       214.8906u
  power      1.6888m    0.         0.     

     total voltage source power dissipation=    1.6888m       watts



 **** current sources

 subckt             
 element  0:i1      
  volts      1.2047 
  current  130.0000u
  power   -156.6074u


     total current source power dissipation=-156.6074u       watts


 **** mosfets


 subckt                                                                    
 element  0:m2       0:m4       0:m6       0:m8       0:m10      0:m11     
 model    0:nch.3    0:nch.3    0:pch.8    0:nch.3    0:pch.4    0:pch.4   
 region   Saturation Saturation Saturation Saturation Saturation Saturation
  id       130.0000u  131.5121u -131.5121u  132.9480u -132.9483u -132.9483u
  ibs     -2.117e-20 -2.141e-20  2.018e-20 -2.165e-20   50.9481a  1.898e-20
  ibd     -204.2222a   -1.9661p   11.8826a -311.0809p   51.4199a   51.0323a
  vgs      595.3274m  595.3274m -957.2658m  595.3274m -742.4926m -688.2832m
  vds      595.3274m  842.7342m -957.2658m    1.1117  -473.5100m -214.7732m
  vbs        0.         0.         0.         0.       214.7732m    0.     
  vth      483.2954m  483.2384m -486.6602m  483.1764m -556.0807m -488.9843m
  vdsat    156.6250m  156.6683m -367.7348m  156.7154m -185.9220m -190.9002m
  vod      112.0321m  112.0891m -470.6055m  112.1511m -186.4119m -199.2989m
  beta      13.3517m   13.3518m    1.2747m   13.3520m    6.6856m    6.8492m
  gam eff  511.7809m  511.7809m  608.0220m  511.7808m  599.3569m  601.1098m
  gm         1.5468m    1.5612m  463.5180u    1.5734m    1.1420m    1.0214m
  gds        6.8570u    5.6107u   16.1250u    5.1379u   35.4576u  141.9651u
  gmb      441.6620u  445.7438u  158.3211u  449.2043u  348.4481u  345.0110u
  cdtot     36.1141f   34.5981f    4.8110f   33.3348f   24.5942f   28.3626f
  cgtot    195.3641f  195.2723f    8.8257f  195.2455f   42.5523f   43.0828f
  cstot    236.1322f  236.2061f   12.5748f  236.2461f   58.0083f   60.7016f
  cbtot    117.6033f  116.1567f   10.0610f  114.9134f   47.3986f   53.0288f
  cgs      163.4941f  163.4138f    7.2604f  163.3882f   34.3913f   34.5267f
  cgd       11.7585f   11.7187f    1.3001f   11.7072f    6.5067f    6.8845f



 subckt                                                                    
 element  0:m12      0:m13      0:m14      0:m15      0:m16      0:m17     
 model    0:nch.8    0:pch.4    0:pch.4    0:nch.8    0:nch.8    0:pch.4   
 region   Saturation Saturation Saturation Saturation Saturation Saturation
  id       133.5615u -133.5615u -133.5615u  133.9417u  133.9417u -133.9417u
  ibs     -2.656e-20   50.9500a  1.907e-20 -2.257e-20  -25.4620a   50.9510a
  ibd     -243.5854f   51.8273a   51.0394a  -25.4697a  -25.5129a  187.2801a
  vgs      850.2462m -738.0533m -688.2832m  625.3065m  663.8088m -735.1765m
  vds      850.2462m -730.5414m -219.2125m  186.4374m  438.8691m -952.6043m
  vbs        0.       219.2125m    0.         0.      -186.4374m  222.0892m
  vth      513.0624m -556.5176m -488.9735m  503.2063m  553.3045m -556.6004m
  vdsat    238.3276m -182.5502m -190.9071m  126.3471m  122.5567m -180.4964m
  vod      337.1837m -181.5357m -199.3097m  122.1002m  110.5043m -178.5761m
  beta       2.9920m    6.6896m    6.8492m   16.3835m   16.2584m    6.6924m
  gam eff  785.9254m  599.3226m  601.1098m  742.7498m  752.5891m  599.3004m
  gm       573.0189u    1.1745m    1.0304m    1.3800m    1.4888m    1.1899m
  gds       16.5046u   23.8136u  134.4497u  133.6248u   40.1702u   19.9689u
  gmb      164.3310u  355.9027u  347.9030u  391.7570u  376.5201u  358.6871u
  cdtot      1.8576f   23.4806f   28.2551f   10.2538f    9.0726f   22.7136f
  cgtot      3.5734f   42.4678f   43.0644f   17.1795f   16.9049f   42.4227f
  cstot      4.7545f   57.8829f   60.6999f   22.1304f   21.1268f   57.7899f
  cbtot      3.7532f   46.2836f   52.9900f   18.7304f   16.8346f   45.4944f
  cgs        2.7370f   34.2740f   34.5278f   12.7966f   12.6082f   34.1961f
  cgd      582.1569a    6.4885f    6.8588f    3.0147f    2.9147f    6.4851f



 subckt                                                                    
 element  0:m18      0:m5       0:m3       0:m7       0:m9       0:m1      
 model    0:pch.4    0:nch.4    0:nch.8    0:pch.4    0:pch.4    0:pch.4   
 region   Saturation Linear     Linear     Saturation Saturation Saturation
  id      -133.9417u   61.3734u  -80.1401u -134.7504u -134.7504u -141.5120u
  ibs      1.912e-20 -1.011e-20  -12.8000a   50.9530a  1.924e-20  2.033e-20
  ibd       51.0439a  -25.0254a -1.351e-20  114.5813p   51.0539a    1.4816n
  vgs     -688.2832m  625.3065m  832.3031m -728.7196m -688.2832m -648.3000m
  vds     -222.0892m   17.9431m  -17.9431m   -1.5715  -228.5462m   -1.7821 
  vbs        0.         0.       -17.9431m  228.5462m    0.         0.     
  vth     -488.9665m  502.9425m  503.4911m -556.3376m -488.9508m -503.6738m
  vdsat   -190.9115m  126.3706m  237.1503m -176.1729m -190.9215m -149.6314m
  vod     -199.3167m  122.3640m  346.7551m -172.3820m -199.3324m -144.6262m
  beta       6.8492m   32.8666m   15.7151m    6.6994m    6.8493m    8.4222m
  gam eff  601.1098m  740.5971m  742.7493m  599.2506m  601.1098m  676.1708m
  gm         1.0359m  444.4901u  203.7966u    1.2143m    1.0475m    1.4163m
  gds      129.9416u    3.1302m    4.2662m   16.1412u  120.7681u   20.1091u
  gmb      349.6805u  130.3662u   64.2570u  361.0915u  353.4139u  458.2183u
  cdtot     28.1889f   45.9944f   26.1584f   21.0962f   28.0494f   15.8826f
  cgtot     43.0532f   38.4014f   20.4658f   42.3275f   43.0300f   25.0316f
  cstot     60.6989f   47.5113f   28.7809f   57.5574f   60.6974f   37.7606f
  cbtot     52.9653f   39.2308f   19.8526f   43.8143f   52.9105f   33.2297f
  cgs       34.5283f   21.9125f    9.5065f   34.0109f   34.5290f   18.7645f
  cgd        6.8433f   14.8938f   10.5063f    6.4827f    6.8116f    4.8686f




          ***** job concluded
 **info** dc convergence successful at Newton-Raphson method 
 ******  
 

 ****** ac analysis tnom=  25.000 temp=  25.000 ******
 ****** operating point status is all       simulation time is     0.     

   *** parameter vbias =    5.000E-02 ***

    node    =voltage      node    =voltage      node    =voltage

 +0:vb1     = 850.2462m 0:vb2     = 842.7342m 0:vb3     =   1.1117 
 +0:vb4     = 625.3065m 0:vdd     =   1.8000  0:vin     =   1.1517 
 +0:vm10s   =   1.5852  0:vm13s   =   1.5808  0:vm15d   = 186.4374m
 +0:vm17s   =   1.5779  0:vm2d    = 595.3274m 0:vm5d    =  49.1506m
 +0:vm7s    =   1.5719  0:vout    =  50.0000m


 **** voltage sources

 subckt                                   
 element  0:vdd      0:vin      0:vout    
  volts      1.8000     1.1517    50.0000m
  current -937.5421u    0.       131.3763u
  power      1.6876m    0.        -6.5688u

     total voltage source power dissipation=    1.6810m       watts



 **** current sources

 subckt             
 element  0:i1      
  volts      1.2047 
  current  130.0000u
  power   -156.6074u


     total current source power dissipation=-156.6074u       watts


 **** mosfets


 subckt                                                                    
 element  0:m2       0:m4       0:m6       0:m8       0:m10      0:m11     
 model    0:nch.3    0:nch.3    0:pch.8    0:nch.3    0:pch.4    0:pch.4   
 region   Saturation Saturation Saturation Saturation Saturation Saturation
  id       130.0000u  131.5121u -131.5121u  132.9480u -132.9483u -132.9483u
  ibs     -2.117e-20 -2.141e-20  2.018e-20 -2.165e-20   50.9481a  1.898e-20
  ibd     -204.2222a   -1.9661p   11.8826a -311.0809p   51.4199a   51.0323a
  vgs      595.3274m  595.3274m -957.2658m  595.3274m -742.4926m -688.2832m
  vds      595.3274m  842.7342m -957.2658m    1.1117  -473.5100m -214.7732m
  vbs        0.         0.         0.         0.       214.7732m    0.     
  vth      483.2954m  483.2384m -486.6602m  483.1764m -556.0807m -488.9843m
  vdsat    156.6250m  156.6683m -367.7348m  156.7154m -185.9220m -190.9002m
  vod      112.0321m  112.0891m -470.6055m  112.1511m -186.4119m -199.2989m
  beta      13.3517m   13.3518m    1.2747m   13.3520m    6.6856m    6.8492m
  gam eff  511.7809m  511.7809m  608.0220m  511.7808m  599.3569m  601.1098m
  gm         1.5468m    1.5612m  463.5180u    1.5734m    1.1420m    1.0214m
  gds        6.8570u    5.6107u   16.1250u    5.1379u   35.4576u  141.9651u
  gmb      441.6620u  445.7438u  158.3211u  449.2043u  348.4481u  345.0110u
  cdtot     36.1141f   34.5981f    4.8110f   33.3348f   24.5942f   28.3626f
  cgtot    195.3641f  195.2723f    8.8257f  195.2455f   42.5523f   43.0828f
  cstot    236.1322f  236.2061f   12.5748f  236.2461f   58.0083f   60.7016f
  cbtot    117.6033f  116.1567f   10.0610f  114.9134f   47.3986f   53.0288f
  cgs      163.4941f  163.4138f    7.2604f  163.3882f   34.3913f   34.5267f
  cgd       11.7585f   11.7187f    1.3001f   11.7072f    6.5067f    6.8845f



 subckt                                                                    
 element  0:m12      0:m13      0:m14      0:m15      0:m16      0:m17     
 model    0:nch.8    0:pch.4    0:pch.4    0:nch.8    0:nch.8    0:pch.4   
 region   Saturation Saturation Saturation Saturation Saturation Saturation
  id       133.5615u -133.5615u -133.5615u  133.9417u  133.9417u -133.9417u
  ibs     -2.656e-20   50.9500a  1.907e-20 -2.257e-20  -25.4620a   50.9510a
  ibd     -243.5854f   51.8273a   51.0394a  -25.4697a  -25.5129a  187.2801a
  vgs      850.2462m -738.0533m -688.2832m  625.3065m  663.8088m -735.1765m
  vds      850.2462m -730.5414m -219.2125m  186.4374m  438.8691m -952.6043m
  vbs        0.       219.2125m    0.         0.      -186.4374m  222.0892m
  vth      513.0624m -556.5176m -488.9735m  503.2063m  553.3045m -556.6004m
  vdsat    238.3276m -182.5502m -190.9071m  126.3471m  122.5567m -180.4964m
  vod      337.1837m -181.5357m -199.3097m  122.1002m  110.5043m -178.5761m
  beta       2.9920m    6.6896m    6.8492m   16.3835m   16.2584m    6.6924m
  gam eff  785.9254m  599.3226m  601.1098m  742.7498m  752.5891m  599.3004m
  gm       573.0189u    1.1745m    1.0304m    1.3800m    1.4888m    1.1899m
  gds       16.5046u   23.8136u  134.4497u  133.6248u   40.1702u   19.9689u
  gmb      164.3310u  355.9027u  347.9030u  391.7570u  376.5201u  358.6871u
  cdtot      1.8576f   23.4806f   28.2551f   10.2538f    9.0726f   22.7136f
  cgtot      3.5734f   42.4678f   43.0644f   17.1795f   16.9049f   42.4227f
  cstot      4.7545f   57.8829f   60.6999f   22.1304f   21.1268f   57.7899f
  cbtot      3.7532f   46.2836f   52.9900f   18.7304f   16.8346f   45.4944f
  cgs        2.7370f   34.2740f   34.5278f   12.7966f   12.6082f   34.1961f
  cgd      582.1569a    6.4885f    6.8588f    3.0147f    2.9147f    6.4851f



 subckt                                                                    
 element  0:m18      0:m5       0:m3       0:m7       0:m9       0:m1      
 model    0:pch.4    0:nch.4    0:nch.8    0:pch.4    0:pch.4    0:pch.4   
 region   Saturation Linear     Linear     Saturation Saturation Saturation
  id      -133.9417u  144.2021u    3.3168u -134.6930u -134.6930u -140.8842u
