 ****** HSPICE -- O-2018.09-SP2 win64 (Feb 25 2019) ******                      
  Copyright (c) 1986 - 2021 by Synopsys, Inc. All Rights Reserved.              
  This software and the associated documentation are proprietary
  to Synopsys, Inc. This software may only be used in accordance
  with the terms and conditions of a written license agreement with
  Synopsys, Inc. All other use, reproduction, or distribution of
  this software is strictly prohibited.
  Input File: cascode_amplifier_h.sp                                            
  Command line options: C:\synopsys\Hspice_O-2018.09-SP2\WIN64\hspice.com -i cascode_amplifier_h.sp -o C:\mdsy\proj1\cascode_amplifier_h.lis
  Start time: Fri Dec  3 18:38:30 2021
  lic:  
  lic: FLEXlm: SDK_11.7.3 
  lic: USER:   admin                HOSTNAME: DESKTOP-3KO7170 
  lic: HOSTID: "d83bbfb49802"       PID:      12728 
  lic: Using FLEXlm license file: 
  lic: 27000@DESKTOP-3KO7170 
  lic: Checkout 1 hspice 
  lic: License/Maintenance for hspice will expire on 30-dec-2029/2019.2019 
  lic: 1(in_use)/99(total) FLOATING license(s) on SERVER 27000@DESKTOP-3KO7170 
  lic:   
 

  
      

Element variations(Local):   element              parameter
 **info** set option symb=1 internally to help for convergence.
 *****************************************************************
 ******  option summary
 ******
 runlvl  = 3         bypass  = 2.0000    
 **info** dc convergence successful at GMINDC ramping method 
1****** HSPICE -- O-2018.09-SP2 win64 (Feb 25 2019) ******                      
 ******  
 

 ****** operating point information tnom=  25.000 temp=  25.000 ******
 ****** operating point status is all       simulation time is     0.     
    node    =voltage      node    =voltage      node    =voltage

 +0:vb1     = 850.2462m 0:vb2     = 842.7342m 0:vb3     =   1.1117 
 +0:vb4     = 625.3065m 0:vdd     =   1.8000  0:vin     =   1.1517 
 +0:vm10s   =   1.5852  0:vm13s   =   1.5808  0:vm15d   = 186.4374m
 +0:vm17s   =   1.5779  0:vm2d    = 595.3274m 0:vm5d    = 191.9251m
 +0:vm7s    =   1.5819  0:vout    = 927.3912m


 **** voltage sources

 subckt                        
 element  0:vdd      0:vin     
  volts      1.8000     1.1517 
  current -933.3657u    0.     
  power      1.6801m    0.     

     total voltage source power dissipation=    1.6801m       watts



 **** current sources

 subckt             
 element  0:i1      
  volts      1.2047 
  current  130.0000u
  power   -156.6074u


     total current source power dissipation=-156.6074u       watts


 **** mosfets


 subckt                                                                    
 element  0:m2       0:m4       0:m8       0:m12      0:m15      0:m16     
 model    0:nch.3    0:nch.3    0:nch.3    0:nch.8    0:nch.8    0:nch.8   
 region   Saturation Saturation Saturation Saturation Saturation Saturation
  id       130.0000u  131.5121u  132.9480u  133.5615u  133.9417u  133.9417u
  ibs     -2.117e-20 -2.141e-20 -2.165e-20 -2.656e-20 -2.257e-20  -25.4620a
  ibd     -204.2222a   -1.9661p -311.0809p -243.5854f  -25.4697a  -25.5129a
  vgs      595.3274m  595.3274m  595.3274m  850.2462m  625.3065m  663.8088m
  vds      595.3274m  842.7342m    1.1117   850.2462m  186.4374m  438.8691m
  vbs        0.         0.         0.         0.         0.      -186.4374m
  vth      483.2954m  483.2384m  483.1764m  513.0624m  503.2063m  553.3045m
  vdsat    156.6250m  156.6683m  156.7154m  238.3276m  126.3471m  122.5567m
  vod      112.0321m  112.0891m  112.1511m  337.1837m  122.1002m  110.5043m
  beta      13.3517m   13.3518m   13.3520m    2.9920m   16.3835m   16.2584m
  gam eff  511.7809m  511.7809m  511.7808m  785.9254m  742.7498m  752.5891m
  gm         1.5468m    1.5612m    1.5734m  573.0189u    1.3800m    1.4888m
  gds        6.8570u    5.6107u    5.1379u   16.5046u  133.6248u   40.1702u
  gmb      441.6620u  445.7438u  449.2043u  164.3310u  391.7570u  376.5201u
  cdtot     36.1141f   34.5981f   33.3348f    1.8576f   10.2538f    9.0726f
  cgtot    195.3641f  195.2723f  195.2455f    3.5734f   17.1795f   16.9049f
  cstot    236.1322f  236.2061f  236.2461f    4.7545f   22.1304f   21.1268f
  cbtot    117.6033f  116.1567f  114.9134f    3.7532f   18.7304f   16.8346f
  cgs      163.4941f  163.4138f  163.3882f    2.7370f   12.7966f   12.6082f
  cgd       11.7585f   11.7187f   11.7072f  582.1569a    3.0147f    2.9147f



 subckt                                                                    
 element  0:m5       0:m3       0:m6       0:m10      0:m11      0:m13     
 model    0:nch.4    0:nch.8    0:pch.8    0:pch.4    0:pch.4    0:pch.4   
 region   Saturation Saturation Saturation Saturation Saturation Saturation
  id       271.4020u  133.4077u -131.5121u -132.9483u -132.9483u -133.5615u
  ibs     -4.470e-20  -25.4655a  2.018e-20   50.9481a  1.898e-20   50.9500a
  ibd      -49.7882a -263.1754f   11.8826a   51.4199a   51.0323a   51.8273a
  vgs      625.3065m  658.3211m -957.2658m -742.4926m -688.2832m -738.0533m
  vds      191.9251m  735.4661m -957.2658m -473.5100m -214.7732m -730.5414m
  vbs        0.      -191.9251m    0.       214.7732m    0.       219.2125m
  vth      502.6508m  553.8827m -486.6602m -556.0807m -488.9843m -556.5176m
  vdsat    126.5132m  119.3768m -367.7348m -185.9220m -190.9002m -182.5502m
  vod      122.6557m  104.4384m -470.6055m -186.4119m -199.2989m -181.5357m
  beta      32.8684m   16.2741m    1.2747m    6.6856m    6.8492m    6.6896m
  gam eff  740.5981m  752.8652m  608.0220m  599.3569m  601.1098m  599.3226m
  gm         2.7941m    1.5104m  463.5180u    1.1420m    1.0214m    1.1745m
  gds      255.0184u   28.6173u   16.1250u   35.4576u  141.9651u   23.8136u
  gmb      791.8129u  378.2099u  158.3211u  348.4481u  345.0110u  355.9027u
  cdtot     20.2811f    8.6389f    4.8110f   24.5942f   28.3626f   23.4806f
  cgtot     34.3542f   16.8117f    8.8257f   42.5523f   43.0828f   42.4678f
  cstot     44.1137f   20.9905f   12.5748f   58.0083f   60.7016f   57.8829f
  cbtot     37.0827f   16.3883f   10.0610f   47.3986f   53.0288f   46.2836f
  cgs       25.6207f   12.4832f    7.2604f   34.3913f   34.5267f   34.2740f
  cgd        6.0160f    2.9099f    1.3001f    6.5067f    6.8845f    6.4885f



 subckt                                                                    
 element  0:m14      0:m17      0:m18      0:m7       0:m9       0:m1      
 model    0:pch.4    0:pch.4    0:pch.4    0:pch.4    0:pch.4    0:pch.4   
 region   Saturation Saturation Saturation Saturation Saturation Saturation
  id      -133.5615u -133.9417u -133.9417u -133.4077u -133.4077u -137.9941u
  ibs      1.907e-20   50.9510a  1.912e-20   50.9495a  1.905e-20  1.983e-20
  ibd       51.0394a  187.2801a   51.0439a   51.7063a   51.0376a  247.9778p
  vgs     -688.2832m -735.1765m -688.2832m -739.1901m -688.2832m -648.3000m
  vds     -219.2125m -952.6043m -222.0892m -654.5332m -218.0757m   -1.6081 
  vbs        0.       222.0892m    0.       218.0757m    0.         0.     
  vth     -488.9735m -556.6004m -488.9665m -556.4423m -488.9763m -504.4568m
  vdsat   -190.9071m -180.4964m -190.9115m -183.3896m -190.9053m -149.2639m
  vod     -199.3097m -178.5761m -199.3167m -182.7478m -199.3069m -143.8432m
  beta       6.8492m    6.6924m    6.8492m    6.6885m    6.8492m    8.4213m
  gam eff  601.1098m  599.3004m  601.1098m  599.3314m  601.1098m  676.1708m
  gm         1.0304m    1.1899m    1.0359m    1.1673m    1.0282m    1.3910m
  gds      134.4497u   19.9689u  129.9416u   25.9932u  136.3080u   20.3925u
  gmb      347.9030u  358.6871u  349.6805u  354.3888u  347.1800u  452.4705u
  cdtot     28.2551f   22.7136f   28.1889f   23.7779f   28.2820f   16.1801f
  cgtot     43.0644f   42.4227f   43.0532f   42.4871f   43.0690f   25.0304f
  cstot     60.6999f   57.7899f   60.6989f   57.9173f   60.7003f   37.7788f
  cbtot     52.9900f   45.4944f   52.9653f   46.5868f   52.9999f   33.5286f
  cgs       34.5278f   34.1961f   34.5283f   34.3042f   34.5276f   18.7804f
  cgd        6.8588f    6.4851f    6.8433f    6.4910f    6.8652f    4.8686f




          ***** job concluded
 ******  
 

 ****** job statistics summary tnom=  25.000 temp=  25.000 ******

  ******  HSPICE Threads Information  ******

  Command Line Threads Count :     1
  Available CPU Count        :     8
  Actual Threads Count       :     1


  ******  Circuit Statistics  ******
  # nodes       =      51 # elements   =      22
  # resistors   =       0 # capacitors =       1 # inductors   =       0
  # mutual_inds =       0 # vccs       =       0 # vcvs        =       0
  # cccs        =       0 # ccvs       =       0 # volt_srcs   =       2
  # curr_srcs   =       1 # diodes     =       0 # bjts        =       0
  # jfets       =       0 # mosfets    =      18 # U elements  =       0
  # T elements  =       0 # W elements =       0 # B elements  =       0
  # S elements  =       0 # P elements =       0 # va device   =       0
  # vector_srcs =       0 # N elements =       0


  ******  Runtime Statistics (seconds)  ******

  analysis           time    # points   tot. iter  conv.iter
  op point           0.03           1         249
  ac analysis        0.01          91          91
  readin             0.06
  errchk             0.02
  setup              0.00
  output             0.00


           peak memory used         64.27 megabytes
           total cpu time            0.13 seconds
           total elapsed time        0.19 seconds
           job started at     18:38:30 12/03/2021
           job ended   at     18:38:30 12/03/2021


  
      

Element variations(Local):   element              parameter
 **info** set option symb=1 internally to help for convergence.
 *****************************************************************
 ******  option summary
 ******
 runlvl  = 3         bypass  = 2.0000    
 **info** dc convergence successful at GMINDC ramping method 
 ******  
 

 ****** operating point information tnom=  25.000 temp=  25.000 ******
 ****** operating point status is all       simulation time is     0.     
    node    =voltage      node    =voltage      node    =voltage

 +0:vb1     = 827.3049m 0:vb2     = 842.7342m 0:vb3     =   1.1117 
 +0:vb4     = 616.1508m 0:vdd     =   1.8000  0:vin     =   1.1540 
 +0:vm10s   =   1.5852  0:vm13s   =   1.5805  0:vm15d   = 172.7795m
 +0:vm17s   =   1.5778  0:vm2d    = 595.3274m 0:vm5d    = 175.0177m
 +0:vm7s    =   1.5818  0:vout    = 921.4709m


 **** voltage sources

 subckt                        
 element  0:vdd      0:vin     
  volts      1.8000     1.1540 
  current -930.5956u    0.     
  power      1.6751m    0.     

     total voltage source power dissipation=    1.6751m       watts



 **** current sources

 subckt             
 element  0:i1      
  volts      1.2047 
  current  130.0000u
  power   -156.6074u


     total current source power dissipation=-156.6074u       watts


 **** mosfets


 subckt                                                                    
 element  0:m2       0:m4       0:m8       0:m12      0:m15      0:m16     
 model    0:nch.3    0:nch.3    0:nch.3    0:nch.7    0:nch.3    0:nch.3   
 region   Saturation Saturation Saturation Saturation Saturation Saturation
  id       130.0000u  131.5121u  132.9480u  133.6044u  133.9557u  133.9557u
  ibs     -2.117e-20 -2.141e-20 -2.165e-20 -2.404e-20 -2.207e-20  -49.7402a
  ibd     -204.2222a   -1.9661p -311.0809p  -20.3579f  -49.7453a  -49.8313a
  vgs      595.3274m  595.3274m  595.3274m  827.3049m  616.1508m  654.5254m
  vds      595.3274m  842.7342m    1.1117   827.3049m  172.7795m  443.3712m
  vbs        0.         0.         0.         0.         0.      -172.7795m
  vth      483.2954m  483.2384m  483.1764m  489.8247m  487.8466m  534.4463m
  vdsat    156.6250m  156.6683m  156.7154m  285.4701m  147.0944m  144.1278m
  vod      112.0321m  112.0891m  112.1511m  337.4802m  128.3042m  120.0791m
  beta      13.3517m   13.3518m   13.3520m    2.6362m   14.0784m   13.9736m
  gam eff  511.7809m  511.7809m  511.7808m  527.0626m  499.9791m  498.4777m
  gm         1.5468m    1.5612m    1.5734m  641.2157u    1.4129m    1.5351m
  gds        6.8570u    5.6107u    5.1379u    7.7012u  139.9014u   16.9008u
  gmb      441.6620u  445.7438u  449.2043u  178.7446u  392.4049u  392.2489u
  cdtot     36.1141f   34.5981f   33.3348f    3.5971f   21.6272f   18.0764f
  cgtot    195.3641f  195.2723f  195.2455f   12.0289f   57.3542f   56.0699f
  cstot    236.1322f  236.2061f  236.2461f   14.7471f   68.8022f   66.6493f
  cbtot    117.6033f  116.1567f  114.9134f    8.4641f   43.7157f   39.3771f
  cgs      163.4941f  163.4138f  163.3882f   10.2620f   47.1241f   46.6065f
  cgd       11.7585f   11.7187f   11.7072f    1.1728f    6.5926f    5.8829f



 subckt                                                                    
 element  0:m5       0:m3       0:m6       0:m10      0:m11      0:m13     
 model    0:nch.3    0:nch.3    0:pch.8    0:pch.4    0:pch.4    0:pch.4   
 region   Saturation Saturation Saturation Saturation Saturation Saturation
  id       268.5751u  133.4201u -131.5121u -132.9483u -132.9483u -133.6044u
  ibs     -4.373e-20  -49.7452a  2.018e-20   50.9481a  1.898e-20   50.9501a
  ibd      -98.3423a -180.7476f   11.8826a   51.4199a   51.0323a   51.8633a
  vgs      616.1508m  652.2872m -957.2658m -742.4926m -688.2832m -737.7336m
  vds      175.0177m  746.4531m -957.2658m -473.5100m -214.7732m -753.1629m
  vbs        0.      -175.0177m    0.       214.7732m    0.       219.5322m
  vth      487.8459m  534.9189m -486.6602m -556.0807m -488.9843m -556.5343m
  vdsat    147.0948m  142.3386m -367.7348m -185.9220m -190.9002m -182.3171m
  vod      128.3048m  117.3683m -470.6055m -186.4119m -199.2989m -181.1993m
  beta      28.1620m   13.9783m    1.2747m    6.6856m    6.8492m    6.6899m
  gam eff  499.9791m  498.4591m  608.0220m  599.3569m  601.1098m  599.3201m
  gm         2.8388m    1.5460m  463.5180u    1.1420m    1.0214m    1.1764m
  gds      268.5755u   10.0025u   16.1250u   35.4576u  141.9651u   23.2780u
  gmb      788.3080u  394.4409u  158.3211u  348.4481u  345.0110u  356.2834u
  cdtot     42.9367f   17.1650f    4.8110f   24.5942f   28.3626f   23.3960f
  cgtot    114.6520f   55.8835f    8.8257f   42.5523f   43.0828f   42.4626f
  cstot    137.4674f   66.4883f   12.5748f   58.0083f   60.7016f   57.8730f
  cbtot     87.0592f   38.4964f   10.0610f   47.3986f   53.0288f   46.1969f
  cgs       94.2596f   46.3975f    7.2604f   34.3913f   34.5267f   34.2654f
  cgd       13.1280f    5.8566f    1.3001f    6.5067f    6.8845f    6.4879f



 subckt                                                                    
 element  0:m14      0:m17      0:m18      0:m7       0:m9       0:m1      
 model    0:pch.4    0:pch.4    0:pch.4    0:pch.4    0:pch.4    0:pch.4   
 region   Saturation Saturation Saturation Saturation Saturation Saturation
  id      -133.6044u -133.9557u -133.9557u -133.4201u -133.4201u -135.1547u
  ibs      1.908e-20   50.9511a  1.913e-20   50.9495a  1.905e-20  1.942e-20
  ibd       51.0399a  244.7501a   51.0441a   51.7156a   51.0377a  298.0949p
  vgs     -688.2832m -735.0692m -688.2832m -739.0990m -688.2832m -646.0000m
  vds     -219.5322m -961.6527m -222.1966m -660.3624m -218.1667m   -1.6250 
  vbs        0.       222.1966m    0.       218.1667m    0.         0.     
  vth     -488.9727m -556.6007m -488.9663m -556.4492m -488.9761m -504.3806m
  vdsat   -190.9076m -180.4216m -190.9117m -183.3217m -190.9055m -147.8422m
  vod     -199.3105m -178.4684m -199.3169m -182.6498m -199.3072m -141.6194m
  beta       6.8492m    6.6925m    6.8492m    6.6886m    6.8492m    8.4234m
  gam eff  601.1098m  599.2995m  601.1098m  599.3307m  601.1098m  676.1708m
  gm         1.0310m    1.1904m    1.0361m    1.1679m    1.0283m    1.3755m
  gds      133.9351u   19.8616u  129.7787u   25.8016u  136.1575u   20.0114u
  gmb      348.1042u  358.7654u  349.7454u  354.5195u  347.2384u  447.1797u
  cdtot     28.2476f   22.6850f   28.1865f   23.7543f   28.2798f   16.1499f
  cgtot     43.0631f   42.4211f   43.0528f   42.4855f   43.0686f   25.0055f
  cstot     60.6998f   57.7863f   60.6989f   57.9146f   60.7002f   37.7446f
  cbtot     52.9873f   45.4648f   52.9643f   46.5628f   52.9991f   33.4995f
  cgs       34.5279f   34.1931f   34.5283f   34.3018f   34.5276f   18.7450f
  cgd        6.8570f    6.4850f    6.8427f    6.4907f    6.8647f    4.8686f




          ***** job concluded
 ******  
 

 ****** job statistics summary tnom=  25.000 temp=  25.000 ******

  ******  Circuit Statistics  ******
  # nodes       =      51 # elements   =      22
  # resistors   =       0 # capacitors =       1 # inductors   =       0
  # mutual_inds =       0 # vccs       =       0 # vcvs        =       0
  # cccs        =       0 # ccvs       =       0 # volt_srcs   =       2
  # curr_srcs   =       1 # diodes     =       0 # bjts        =       0
  # jfets       =       0 # mosfets    =      18 # U elements  =       0
  # T elements  =       0 # W elements =       0 # B elements  =       0
  # S elements  =       0 # P elements =       0 # va device   =       0
  # vector_srcs =       0 # N elements =       0


  ******  Runtime Statistics (seconds)  ******

  analysis           time    # points   tot. iter  conv.iter
  op point           0.02           1         250
  ac analysis        0.00          91          91
  readin             0.03
  errchk             0.01
  setup              0.00
  output             0.00


           peak memory used         64.27 megabytes
           total cpu time            0.06 seconds
           total elapsed time        0.11 seconds
           job started at     18:38:30 12/03/2021
           job ended   at     18:38:30 12/03/2021


  
      

Element variations(Local):   element              parameter
 **info** set option symb=1 internally to help for convergence.
 *****************************************************************
 ******  option summary
 ******
 runlvl  = 3         bypass  = 2.0000    
 **info** dc convergence successful at GMINDC ramping method 
 ******  
 

 ****** operating point information tnom=  25.000 temp=  25.000 ******
 ****** operating point status is all       simulation time is     0.     
    node    =voltage      node    =voltage      node    =voltage

 +0:vb1     = 800.2960m 0:vb2     = 842.7342m 0:vb3     =   1.1117 
 +0:vb4     = 606.3718m 0:vdd     =   1.8000  0:vin     =   1.1540 
 +0:vm10s   =   1.5852  0:vm13s   =   1.5801  0:vm15d   = 158.2420m
 +0:vm17s   =   1.5777  0:vm2d    = 595.3274m 0:vm5d    = 159.9657m
 +0:vm7s    =   1.5831  0:vout    = 998.8708m


 **** voltage sources

 subckt                        
 element  0:vdd      0:vin     
  volts      1.8000     1.1540 
  current -930.7888u    0.     
  power      1.6754m    0.     

     total voltage source power dissipation=    1.6754m       watts



 **** current sources

 subckt             
 element  0:i1      
  volts      1.2047 
  current  130.0000u
  power   -156.6074u


     total current source power dissipation=-156.6074u       watts


 **** mosfets


 subckt                                                                    
 element  0:m2       0:m4       0:m8       0:m12      0:m15      0:m16     
 model    0:nch.3    0:nch.3    0:nch.3    0:nch.7    0:nch.3    0:nch.3   
 region   Saturation Saturation Saturation Saturation Saturation Saturation
  id       130.0000u  131.5121u  132.9480u  133.6535u  133.9704u  133.9704u
  ibs     -2.117e-20 -2.141e-20 -2.165e-20 -2.278e-20 -2.181e-20  -98.2320a
  ibd     -204.2222a   -1.9661p -311.0809p   -1.2479f  -98.2352a  -98.4702a
  vgs      595.3274m  595.3274m  595.3274m  800.2960m  606.3718m  642.0541m
  vds      595.3274m  842.7342m    1.1117   800.2960m  158.2420m  448.1299m
  vbs        0.         0.         0.         0.         0.      -158.2420m
  vth      483.2954m  483.2384m  483.1764m  483.3319m  483.3962m  526.6019m
  vdsat    156.6250m  156.6683m  156.7154m  321.4402m  165.0455m  160.3270m
