 ****** HSPICE -- O-2018.09-SP2 win64 (Feb 25 2019) ******                      
  Copyright (c) 1986 - 2021 by Synopsys, Inc. All Rights Reserved.              
  This software and the associated documentation are proprietary
  to Synopsys, Inc. This software may only be used in accordance
  with the terms and conditions of a written license agreement with
  Synopsys, Inc. All other use, reproduction, or distribution of
  this software is strictly prohibited.
  Input File: fakenmosinv@50m.sp                                                
  Command line options: C:\synopsys\Hspice_O-2018.09-SP2\WIN64\hspice.com -i fakenmosinv@50m.sp -o C:\sdsy\case3\fakenmosinv@50m.lis
  Start time: Fri Oct 29 18:20:08 2021
  lic:  
  lic: FLEXlm: SDK_11.7.3 
  lic: USER:   admin                HOSTNAME: DESKTOP-3KO7170 
  lic: HOSTID: "d83bbfb49802"       PID:      11176 
  lic: Using FLEXlm license file: 
  lic: 27000@DESKTOP-3KO7170 
  lic: Checkout 1 hspice 
  lic: License/Maintenance for hspice will expire on 30-dec-2029/2019.2019 
  lic: 1(in_use)/99(total) FLOATING license(s) on SERVER 27000@DESKTOP-3KO7170 
  lic:   
  
      

Element variations(Local):   element              parameter
 *****************************************************************
 ******  option summary
 ******
 runlvl  = 3         bypass  = 2.0000    
 ******
 

 ****** dc transfer curves tnom=  25.000 temp=  25.000 ******
x

 volt         voltage    voltage   
             vin        vout       
    0.          0.       999.9698m 
    1.00000m    1.0000m  999.9693m 
    2.00000m    2.0000m  999.9689m 
    3.00000m    3.0000m  999.9684m 
    4.00000m    4.0000m  999.9679m 
    5.00000m    5.0000m  999.9674m 
    6.00000m    6.0000m  999.9668m 
    7.00000m    7.0000m  999.9663m 
    8.00000m    8.0000m  999.9657m 
    9.00000m    9.0000m  999.9652m 
   10.00000m   10.0000m  999.9646m 
   11.00000m   11.0000m  999.9639m 
   12.00000m   12.0000m  999.9633m 
   13.00000m   13.0000m  999.9626m 
   14.00000m   14.0000m  999.9620m 
   15.00000m   15.0000m  999.9613m 
   16.00000m   16.0000m  999.9605m 
   17.00000m   17.0000m  999.9598m 
   18.00000m   18.0000m  999.9590m 
   19.00000m   19.0000m  999.9582m 
   20.00000m   20.0000m  999.9574m 
   21.00000m   21.0000m  999.9566m 
   22.00000m   22.0000m  999.9557m 
   23.00000m   23.0000m  999.9548m 
   24.00000m   24.0000m  999.9539m 
   25.00000m   25.0000m  999.9529m 
   26.00000m   26.0000m  999.9520m 
   27.00000m   27.0000m  999.9510m 
   28.00000m   28.0000m  999.9499m 
   29.00000m   29.0000m  999.9488m 
   30.00000m   30.0000m  999.9477m 
   31.00000m   31.0000m  999.9466m 
   32.00000m   32.0000m  999.9454m 
   33.00000m   33.0000m  999.9442m 
   34.00000m   34.0000m  999.9430m 
   35.00000m   35.0000m  999.9417m 
   36.00000m   36.0000m  999.9404m 
   37.00000m   37.0000m  999.9390m 
   38.00000m   38.0000m  999.9376m 
   39.00000m   39.0000m  999.9362m 
   40.00000m   40.0000m  999.9347m 
   41.00000m   41.0000m  999.9332m 
   42.00000m   42.0000m  999.9316m 
   43.00000m   43.0000m  999.9300m 
   44.00000m   44.0000m  999.9283m 
   45.00000m   45.0000m  999.9266m 
   46.00000m   46.0000m  999.9248m 
   47.00000m   47.0000m  999.9230m 
   48.00000m   48.0000m  999.9211m 
   49.00000m   49.0000m  999.9191m 
   50.00000m   50.0000m  999.9171m 
   51.00000m   51.0000m  999.9151m 
   52.00000m   52.0000m  999.9130m 
   53.00000m   53.0000m  999.9108m 
   54.00000m   54.0000m  999.9085m 
   55.00000m   55.0000m  999.9062m 
   56.00000m   56.0000m  999.9039m 
   57.00000m   57.0000m  999.9014m 
   58.00000m   58.0000m  999.8989m 
   59.00000m   59.0000m  999.8963m 
   60.00000m   60.0000m  999.8936m 
   61.00000m   61.0000m  999.8909m 
   62.00000m   62.0000m  999.8881m 
   63.00000m   63.0000m  999.8851m 
   64.00000m   64.0000m  999.8821m 
   65.00000m   65.0000m  999.8791m 
   66.00000m   66.0000m  999.8759m 
   67.00000m   67.0000m  999.8726m 
   68.00000m   68.0000m  999.8693m 
   69.00000m   69.0000m  999.8658m 
   70.00000m   70.0000m  999.8622m 
   71.00000m   71.0000m  999.8586m 
   72.00000m   72.0000m  999.8548m 
   73.00000m   73.0000m  999.8509m 
   74.00000m   74.0000m  999.8470m 
   75.00000m   75.0000m  999.8429m 
   76.00000m   76.0000m  999.8386m 
   77.00000m   77.0000m  999.8343m 
   78.00000m   78.0000m  999.8298m 
   79.00000m   79.0000m  999.8252m 
   80.00000m   80.0000m  999.8205m 
   81.00000m   81.0000m  999.8157m 
   82.00000m   82.0000m  999.8107m 
   83.00000m   83.0000m  999.8055m 
   84.00000m   84.0000m  999.8002m 
   85.00000m   85.0000m  999.7948m 
   86.00000m   86.0000m  999.7892m 
   87.00000m   87.0000m  999.7835m 
   88.00000m   88.0000m  999.7775m 
   89.00000m   89.0000m  999.7715m 
   90.00000m   90.0000m  999.7652m 
   91.00000m   91.0000m  999.7588m 
   92.00000m   92.0000m  999.7522m 
   93.00000m   93.0000m  999.7454m 
   94.00000m   94.0000m  999.7384m 
   95.00000m   95.0000m  999.7313m 
   96.00000m   96.0000m  999.7239m 
   97.00000m   97.0000m  999.7163m 
   98.00000m   98.0000m  999.7085m 
   99.00000m   99.0000m  999.7005m 
  100.00000m  100.0000m  999.6923m 
  101.00000m  101.0000m  999.6838m 
  102.00000m  102.0000m  999.6752m 
  103.00000m  103.0000m  999.6662m 
  104.00000m  104.0000m  999.6571m 
  105.00000m  105.0000m  999.6476m 
  106.00000m  106.0000m  999.6380m 
  107.00000m  107.0000m  999.6280m 
  108.00000m  108.0000m  999.6178m 
  109.00000m  109.0000m  999.6073m 
  110.00000m  110.0000m  999.5965m 
  111.00000m  111.0000m  999.5854m 
  112.00000m  112.0000m  999.5741m 
  113.00000m  113.0000m  999.5624m 
  114.00000m  114.0000m  999.5504m 
  115.00000m  115.0000m  999.5381m 
  116.00000m  116.0000m  999.5254m 
  117.00000m  117.0000m  999.5125m 
  118.00000m  118.0000m  999.4991m 
  119.00000m  119.0000m  999.4854m 
  120.00000m  120.0000m  999.4714m 
  121.00000m  121.0000m  999.4569m 
  122.00000m  122.0000m  999.4421m 
  123.00000m  123.0000m  999.4269m 
  124.00000m  124.0000m  999.4113m 
  125.00000m  125.0000m  999.3953m 
  126.00000m  126.0000m  999.3789m 
  127.00000m  127.0000m  999.3620m 
  128.00000m  128.0000m  999.3447m 
  129.00000m  129.0000m  999.3269m 
  130.00000m  130.0000m  999.3087m 
  131.00000m  131.0000m  999.2900m 
  132.00000m  132.0000m  999.2708m 
  133.00000m  133.0000m  999.2511m 
  134.00000m  134.0000m  999.2309m 
  135.00000m  135.0000m  999.2102m 
  136.00000m  136.0000m  999.1890m 
  137.00000m  137.0000m  999.1672m 
  138.00000m  138.0000m  999.1448m 
  139.00000m  139.0000m  999.1219m 
  140.00000m  140.0000m  999.0984m 
  141.00000m  141.0000m  999.0743m 
  142.00000m  142.0000m  999.0496m 
  143.00000m  143.0000m  999.0243m 
  144.00000m  144.0000m  998.9983m 
  145.00000m  145.0000m  998.9716m 
  146.00000m  146.0000m  998.9444m 
  147.00000m  147.0000m  998.9164m 
  148.00000m  148.0000m  998.8877m 
  149.00000m  149.0000m  998.8583m 
  150.00000m  150.0000m  998.8282m 
  151.00000m  151.0000m  998.7973m 
  152.00000m  152.0000m  998.7657m 
  153.00000m  153.0000m  998.7333m 
  154.00000m  154.0000m  998.7000m 
  155.00000m  155.0000m  998.6660m 
  156.00000m  156.0000m  998.6312m 
  157.00000m  157.0000m  998.5955m 
  158.00000m  158.0000m  998.5589m 
  159.00000m  159.0000m  998.5214m 
  160.00000m  160.0000m  998.4831m 
  161.00000m  161.0000m  998.4438m 
  162.00000m  162.0000m  998.4035m 
  163.00000m  163.0000m  998.3623m 
  164.00000m  164.0000m  998.3201m 
  165.00000m  165.0000m  998.2769m 
  166.00000m  166.0000m  998.2327m 
  167.00000m  167.0000m  998.1874m 
  168.00000m  168.0000m  998.1411m 
  169.00000m  169.0000m  998.0937m 
  170.00000m  170.0000m  998.0451m 
  171.00000m  171.0000m  997.9954m 
  172.00000m  172.0000m  997.9446m 
  173.00000m  173.0000m  997.8925m 
  174.00000m  174.0000m  997.8393m 
  175.00000m  175.0000m  997.7848m 
  176.00000m  176.0000m  997.7291m 
  177.00000m  177.0000m  997.6721m 
  178.00000m  178.0000m  997.6137m 
  179.00000m  179.0000m  997.5541m 
  180.00000m  180.0000m  997.4930m 
  181.00000m  181.0000m  997.4306m 
  182.00000m  182.0000m  997.3668m 
  183.00000m  183.0000m  997.3015m 
  184.00000m  184.0000m  997.2348m 
  185.00000m  185.0000m  997.1665m 
  186.00000m  186.0000m  997.0967m 
  187.00000m  187.0000m  997.0254m 
  188.00000m  188.0000m  996.9525m 
  189.00000m  189.0000m  996.8779m 
  190.00000m  190.0000m  996.8017m 
  191.00000m  191.0000m  996.7238m 
  192.00000m  192.0000m  996.6443m 
  193.00000m  193.0000m  996.5629m 
  194.00000m  194.0000m  996.4798m 
  195.00000m  195.0000m  996.3949m 
  196.00000m  196.0000m  996.3081m 
  197.00000m  197.0000m  996.2194m 
  198.00000m  198.0000m  996.1289m 
  199.00000m  199.0000m  996.0364m 
  200.00000m  200.0000m  995.9419m 
  201.00000m  201.0000m  995.8453m 
  202.00000m  202.0000m  995.7468m 
  203.00000m  203.0000m  995.6461m 
  204.00000m  204.0000m  995.5433m 
  205.00000m  205.0000m  995.4383m 
  206.00000m  206.0000m  995.3311m 
  207.00000m  207.0000m  995.2217m 
  208.00000m  208.0000m  995.1100m 
  209.00000m  209.0000m  994.9959m 
  210.00000m  210.0000m  994.8795m 
  211.00000m  211.0000m  994.7607m 
  212.00000m  212.0000m  994.6394m 
  213.00000m  213.0000m  994.5156m 
  214.00000m  214.0000m  994.3893m 
  215.00000m  215.0000m  994.2605m 
  216.00000m  216.0000m  994.1289m 
  217.00000m  217.0000m  993.9948m 
  218.00000m  218.0000m  993.8579m 
  219.00000m  219.0000m  993.7182m 
  220.00000m  220.0000m  993.5757m 
  221.00000m  221.0000m  993.4304m 
  222.00000m  222.0000m  993.2822m 
  223.00000m  223.0000m  993.1310m 
  224.00000m  224.0000m  992.9768m 
  225.00000m  225.0000m  992.8196m 
  226.00000m  226.0000m  992.6593m 
  227.00000m  227.0000m  992.4958m 
  228.00000m  228.0000m  992.3292m 
  229.00000m  229.0000m  992.1592m 
  230.00000m  230.0000m  991.9860m 
  231.00000m  231.0000m  991.8094m 
  232.00000m  232.0000m  991.6294m 
  233.00000m  233.0000m  991.4460m 
  234.00000m  234.0000m  991.2590m 
  235.00000m  235.0000m  991.0685m 
  236.00000m  236.0000m  990.8743m 
  237.00000m  237.0000m  990.6764m 
  238.00000m  238.0000m  990.4748m 
  239.00000m  239.0000m  990.2694m 
  240.00000m  240.0000m  990.0601m 
  241.00000m  241.0000m  989.8469m 
  242.00000m  242.0000m  989.6297m 
  243.00000m  243.0000m  989.4084m 
  244.00000m  244.0000m  989.1831m 
  245.00000m  245.0000m  988.9536m 
  246.00000m  246.0000m  988.7198m 
  247.00000m  247.0000m  988.4818m 
  248.00000m  248.0000m  988.2394m 
  249.00000m  249.0000m  987.9926m 
  250.00000m  250.0000m  987.7413m 
  251.00000m  251.0000m  987.4855m 
  252.00000m  252.0000m  987.2250m 
  253.00000m  253.0000m  986.9599m 
  254.00000m  254.0000m  986.6899m 
  255.00000m  255.0000m  986.4152m 
  256.00000m  256.0000m  986.1356m 
  257.00000m  257.0000m  985.8510m 
  258.00000m  258.0000m  985.5614m 
  259.00000m  259.0000m  985.2666m 
  260.00000m  260.0000m  984.9667m 
  261.00000m  261.0000m  984.6616m 
  262.00000m  262.0000m  984.3511m 
  263.00000m  263.0000m  984.0352m 
  264.00000m  264.0000m  983.7139m 
  265.00000m  265.0000m  983.3870m 
  266.00000m  266.0000m  983.0545m 
  267.00000m  267.0000m  982.7163m 
  268.00000m  268.0000m  982.3723m 
  269.00000m  269.0000m  982.0224m 
  270.00000m  270.0000m  981.6667m 
  271.00000m  271.0000m  981.3049m 
  272.00000m  272.0000m  980.9370m 
  273.00000m  273.0000m  980.5629m 
  274.00000m  274.0000m  980.1826m 
  275.00000m  275.0000m  979.7960m 
  276.00000m  276.0000m  979.4029m 
  277.00000m  277.0000m  979.0034m 
  278.00000m  278.0000m  978.5972m 
  279.00000m  279.0000m  978.1844m 
  280.00000m  280.0000m  977.7649m 
  281.00000m  281.0000m  977.3385m 
  282.00000m  282.0000m  976.9052m 
  283.00000m  283.0000m  976.4649m 
  284.00000m  284.0000m  976.0174m 
  285.00000m  285.0000m  975.5629m 
  286.00000m  286.0000m  975.1010m 
  287.00000m  287.0000m  974.6318m 
  288.00000m  288.0000m  974.1551m 
  289.00000m  289.0000m  973.6709m 
  290.00000m  290.0000m  973.1791m 
  291.00000m  291.0000m  972.6795m 
  292.00000m  292.0000m  972.1722m 
  293.00000m  293.0000m  971.6569m 
  294.00000m  294.0000m  971.1337m 
  295.00000m  295.0000m  970.6024m 
  296.00000m  296.0000m  970.0629m 
  297.00000m  297.0000m  969.5152m 
  298.00000m  298.0000m  968.9591m 
  299.00000m  299.0000m  968.3945m 
  300.00000m  300.0000m  967.8214m 
  301.00000m  301.0000m  967.2396m 
  302.00000m  302.0000m  966.6492m 
  303.00000m  303.0000m  966.0499m 
  304.00000m  304.0000m  965.4416m 
  305.00000m  305.0000m  964.8244m 
  306.00000m  306.0000m  964.1980m 
  307.00000m  307.0000m  963.5624m 
  308.00000m  308.0000m  962.9175m 
  309.00000m  309.0000m  962.2633m 
  310.00000m  310.0000m  961.5995m 
  311.00000m  311.0000m  960.9261m 
  312.00000m  312.0000m  960.2430m 
  313.00000m  313.0000m  959.5501m 
  314.00000m  314.0000m  958.8474m 
  315.00000m  315.0000m  958.1347m 
  316.00000m  316.0000m  957.4118m 
  317.00000m  317.0000m  956.6788m 
  318.00000m  318.0000m  955.9356m 
  319.00000m  319.0000m  955.1819m 
  320.00000m  320.0000m  954.4178m 
  321.00000m  321.0000m  953.6431m 
  322.00000m  322.0000m  952.8578m 
  323.00000m  323.0000m  952.0617m 
  324.00000m  324.0000m  951.2547m 
  325.00000m  325.0000m  950.4368m 
  326.00000m  326.0000m  949.6078m 
  327.00000m  327.0000m  948.7676m 
  328.00000m  328.0000m  947.9163m 
  329.00000m  329.0000m  947.0535m 
  330.00000m  330.0000m  946.1793m 
  331.00000m  331.0000m  945.2936m 
  332.00000m  332.0000m  944.3963m 
  333.00000m  333.0000m  943.4872m 
  334.00000m  334.0000m  942.5663m 
  335.00000m  335.0000m  941.6334m 
  336.00000m  336.0000m  940.6886m 
  337.00000m  337.0000m  939.7316m 
  338.00000m  338.0000m  938.7624m 
  339.00000m  339.0000m  937.7810m 
  340.00000m  340.0000m  936.7871m 
  341.00000m  341.0000m  935.7807m 
  342.00000m  342.0000m  934.7617m 
  343.00000m  343.0000m  933.7301m 
  344.00000m  344.0000m  932.6857m 
  345.00000m  345.0000m  931.6285m 
  346.00000m  346.0000m  930.5584m 
  347.00000m  347.0000m  929.4753m 
  348.00000m  348.0000m  928.3792m 
  349.00000m  349.0000m  927.2699m 
  350.00000m  350.0000m  926.1474m 
  351.00000m  351.0000m  925.0116m 
  352.00000m  352.0000m  923.8623m 
  353.00000m  353.0000m  922.6996m 
  354.00000m  354.0000m  921.5232m 
  355.00000m  355.0000m  920.3332m 
  356.00000m  356.0000m  919.1295m 
  357.00000m  357.0000m  917.9119m 
  358.00000m  358.0000m  916.6803m 
  359.00000m  359.0000m  915.4348m 
  360.00000m  360.0000m  914.1751m 
  361.00000m  361.0000m  912.9013m 
  362.00000m  362.0000m  911.6132m 
  363.00000m  363.0000m  910.3108m 
  364.00000m  364.0000m  908.9939m 
  365.00000m  365.0000m  907.6625m 
  366.00000m  366.0000m  906.3166m 
  367.00000m  367.0000m  904.9559m 
  368.00000m  368.0000m  903.5805m 
  369.00000m  369.0000m  902.1903m 
  370.00000m  370.0000m  900.7851m 
  371.00000m  371.0000m  899.3650m 
  372.00000m  372.0000m  897.9298m 
  373.00000m  373.0000m  896.4794m 
  374.00000m  374.0000m  895.0138m 
  375.00000m  375.0000m  893.5329m 
  376.00000m  376.0000m  892.0366m 
  377.00000m  377.0000m  890.5248m 
  378.00000m  378.0000m  888.9974m 
  379.00000m  379.0000m  887.4545m 
  380.00000m  380.0000m  885.8958m 
  381.00000m  381.0000m  884.3214m 
  382.00000m  382.0000m  882.7311m 
  383.00000m  383.0000m  881.1249m 
  384.00000m  384.0000m  879.5026m 
  385.00000m  385.0000m  877.8643m 
  386.00000m  386.0000m  876.2098m 
  387.00000m  387.0000m  874.5390m 
  388.00000m  388.0000m  872.8519m 
  389.00000m  389.0000m  871.1485m 
  390.00000m  390.0000m  869.4285m 
  391.00000m  391.0000m  867.6920m 
  392.00000m  392.0000m  865.9388m 
  393.00000m  393.0000m  864.1689m 
  394.00000m  394.0000m  862.3822m 
  395.00000m  395.0000m  860.5787m 
  396.00000m  396.0000m  858.7581m 
  397.00000m  397.0000m  856.9206m 
  398.00000m  398.0000m  855.0659m 
  399.00000m  399.0000m  853.1940m 
  400.00000m  400.0000m  851.3048m 
  401.00000m  401.0000m  849.3983m 
  402.00000m  402.0000m  847.4743m 
  403.00000m  403.0000m  845.5327m 
  404.00000m  404.0000m  843.5736m 
  405.00000m  405.0000m  841.5967m 
  406.00000m  406.0000m  839.6020m 
  407.00000m  407.0000m  837.5894m 
  408.00000m  408.0000m  835.5589m 
  409.00000m  409.0000m  833.5102m 
  410.00000m  410.0000m  831.4434m 
  411.00000m  411.0000m  829.3584m 
  412.00000m  412.0000m  827.2550m 
  413.00000m  413.0000m  825.1331m 
  414.00000m  414.0000m  822.9927m 
  415.00000m  415.0000m  820.8336m 
  416.00000m  416.0000m  818.6557m 
  417.00000m  417.0000m  816.4590m 
  418.00000m  418.0000m  814.2434m 
  419.00000m  419.0000m  812.0086m 
  420.00000m  420.0000m  809.7547m 
  421.00000m  421.0000m  807.4814m 
  422.00000m  422.0000m  805.1888m 
  423.00000m  423.0000m  802.8766m 
  424.00000m  424.0000m  800.5448m 
  425.00000m  425.0000m  798.1931m 
  426.00000m  426.0000m  795.8216m 
  427.00000m  427.0000m  793.4300m 
  428.00000m  428.0000m  791.0183m 
  429.00000m  429.0000m  788.5863m 
  430.00000m  430.0000m  786.1338m 
  431.00000m  431.0000m  783.6607m 
  432.00000m  432.0000m  781.1669m 
  433.00000m  433.0000m  778.6523m 
  434.00000m  434.0000m  776.1165m 
  435.00000m  435.0000m  773.5597m 
  436.00000m  436.0000m  770.9814m 
  437.00000m  437.0000m  768.3816m 
  438.00000m  438.0000m  765.7602m 
  439.00000m  439.0000m  763.1169m 
  440.00000m  440.0000m  760.4515m 
  441.00000m  441.0000m  757.7639m 
  442.00000m  442.0000m  755.0539m 
  443.00000m  443.0000m  752.3213m 
  444.00000m  444.0000m  749.5659m 
  445.00000m  445.0000m  746.7874m 
  446.00000m  446.0000m  743.9857m 
  447.00000m  447.0000m  741.1606m 
  448.00000m  448.0000m  738.3117m 
  449.00000m  449.0000m  735.4390m 
  450.00000m  450.0000m  732.5421m 
  451.00000m  451.0000m  729.6208m 
  452.00000m  452.0000m  726.6748m 
  453.00000m  453.0000m  723.7040m 
  454.00000m  454.0000m  720.7079m 
  455.00000m  455.0000m  717.6864m 
  456.00000m  456.0000m  714.6391m 
  457.00000m  457.0000m  711.5658m 
  458.00000m  458.0000m  708.4661m 
  459.00000m  459.0000m  705.3398m 
  460.00000m  460.0000m  702.1865m 
  461.00000m  461.0000m  699.0058m 
  462.00000m  462.0000m  695.7975m 
  463.00000m  463.0000m  692.5612m 
  464.00000m  464.0000m  689.2965m 
  465.00000m  465.0000m  686.0030m 
  466.00000m  466.0000m  682.6804m 
  467.00000m  467.0000m  679.3282m 
  468.00000m  468.0000m  675.9461m 
  469.00000m  469.0000m  672.5335m 
  470.00000m  470.0000m  669.0902m 
  471.00000m  471.0000m  665.6155m 
  472.00000m  472.0000m  662.1091m 
  473.00000m  473.0000m  658.5704m 
  474.00000m  474.0000m  654.9990m 
  475.00000m  475.0000m  651.3944m 
  476.00000m  476.0000m  647.7560m 
  477.00000m  477.0000m  644.0834m 
  478.00000m  478.0000m  640.3758m 
  479.00000m  479.0000m  636.6328m 
  480.00000m  480.0000m  632.8538m 
  481.00000m  481.0000m  629.0382m 
  482.00000m  482.0000m  625.1853m 
  483.00000m  483.0000m  621.2946m 
  484.00000m  484.0000m  617.3653m 
  485.00000m  485.0000m  613.3969m 
  486.00000m  486.0000m  609.3886m 
  487.00000m  487.0000m  605.3397m 
  488.00000m  488.0000m  601.2496m 
  489.00000m  489.0000m  597.1175m 
  490.00000m  490.0000m  592.9427m 
  491.00000m  491.0000m  588.7246m 
  492.00000m  492.0000m  584.4622m 
  493.00000m  493.0000m  580.1550m 
  494.00000m  494.0000m  575.8021m 
  495.00000m  495.0000m  571.4029m 
  496.00000m  496.0000m  566.9566m 
  497.00000m  497.0000m  562.4625m 
  498.00000m  498.0000m  557.9199m 
  499.00000m  499.0000m  553.3281m 
  500.00000m  500.0000m  548.6866m 
  501.00000m  501.0000m  543.9947m 
  502.00000m  502.0000m  539.2519m 
  503.00000m  503.0000m  534.4577m 
  504.00000m  504.0000m  529.6118m 
  505.00000m  505.0000m  524.7137m 
  506.00000m  506.0000m  519.7634m 
  507.00000m  507.0000m  514.7606m 
  508.00000m  508.0000m  509.7054m 
  509.00000m  509.0000m  504.5981m 
  510.00000m  510.0000m  499.4388m 
  511.00000m  511.0000m  494.2282m 
  512.00000m  512.0000m  488.9670m 
  513.00000m  513.0000m  483.6560m 
